Time [s],Packet ID,MOSI,MISO
0.673997680000000,,0x00,0xFF	инициализация
0.674006100000000,,0xFF,0xFF	
0.674010100000000,,0xFF,0xFF
0.674014100000000,,0xFF,0xFF
0.674018100000000,,0xFF,0xFF
0.674022100000000,,0xFF,0xFF
0.674026100000000,,0xFF,0xFF
0.674030100000000,,0xFF,0xFF
0.674034100000000,,0xFF,0xFF
0.674038100000000,,0xFF,0xFF
0.674042100000000,,0xFF,0xFF
0.674046100000000,,0xFF,0xFF
0.674050100000000,,0xFF,0xFF
0.674054100000000,,0xFF,0xFF
0.674058100000000,,0xFF,0xFF
0.674062100000000,,0xFF,0xFF
0.674066100000000,,0xFF,0xFF
0.674070100000000,,0xFF,0xFF
0.674074100000000,,0xFF,0xFF
0.674078100000000,,0xFF,0xFF
0.674082100000000,,0xFF,0xFF
0.674086100000000,,0xFF,0xFF
0.674090100000000,,0xFF,0xFF
0.674094100000000,,0xFF,0xFF
0.674098100000000,,0xFF,0xFF
0.674102100000000,,0xFF,0xFF
0.674106100000000,,0xFF,0xFF
0.674110100000000,,0xFF,0xFF
0.674114100000000,,0xFF,0xFF
0.674118100000000,,0xFF,0xFF
0.674122100000000,,0xFF,0xFF
0.674126100000000,,0xFF,0xFF
0.674130100000000,,0xFF,0xFF
0.674151400000000,,0x40,0xFF	CMD00 GO_IDLE_STATE
0.674154400000000,,0x00,0xFF	команда сброса и перевода карты в SPI режим
0.674157400000000,,0x00,0xFF	
0.674160400000000,,0x00,0xFF	
0.674163400000000,,0x00,0xFF	
0.674166400000000,,0x95,0xFF	
0.674176400000000,,0xFF,0xFF
0.674181960000000,,0xFF,0x01
0.674187540000000,,0xFF,0xFF
0.674215960000000,,0x48,0xFF	CMD08 SEND_IF_COND
0.674218960000000,,0x00,0xFF	запрос поддерживаемых напряжений
0.674221960000000,,0x00,0xFF	
0.674224960000000,,0x01,0xFF	
0.674227960000000,,0xAA,0xFF	
0.674230960000000,,0x87,0xFF	
0.674240960000000,,0xFF,0xFF
0.674246540000000,,0xFF,0x01\данные
0.674252120000000,,0xFF,0x00
0.674258960000000,,0xFF,0x00
0.674261260000000,,0xFF,0x01/
0.674263540000000,,0xFF,0xAA
0.674265820000000,,0xFF,0xFF
0.674287980000000,,0x77,0xFF	CMD_55 APP_CMD
0.674290260000000,,0x00,0xFF
0.674292540000000,,0x00,0xFF
0.674294820000000,,0x00,0xFF
0.674297120000000,,0x00,0xFF
0.674299400000000,,0xFF,0xFF
0.674309400000000,,0xFF,0xFF
0.674314980000000,,0xFF,0x01
0.674320540000000,,0xFF,0xFF
0.674328400000000,,0x69,0xFF	ACMD_41 SD_SEND_OP_COND
0.674330680000000,,0x40,0xFF
0.674332980000000,,0x00,0xFF
0.674335260000000,,0x00,0xFF
0.674337540000000,,0x00,0xFF
0.674340260000000,,0xFF,0xFF
0.674348840000000,,0xFF,0xFF
0.674354400000000,,0xFF,0x01
0.674359980000000,,0xFF,0xFF
0.674384980000000,,0x77,0xFF	CMD_55 APP_CMD
0.674387260000000,,0x00,0xFF
0.674389540000000,,0x00,0xFF
0.674391840000000,,0x00,0xFF
0.674394120000000,,0x00,0xFF
0.674396400000000,,0xFF,0xFF
0.674406400000000,,0xFF,0xFF
0.674411980000000,,0xFF,0x01
0.674417540000000,,0xFF,0xFF
0.674425400000000,,0x69,0xFF	ACMD_41 SD_SEND_OP_COND
0.674427700000000,,0x40,0xFF
0.674429980000000,,0x00,0xFF
0.674432260000000,,0x00,0xFF
0.674434540000000,,0x00,0xFF
0.674437260000000,,0xFF,0xFF
0.674445840000000,,0xFF,0xFF
0.674451400000000,,0xFF,0x00
0.674456980000000,,0xFF,0xFF
0.674481260000000,,0x7B,0xFF	CMD_59 CRC_ON_OFF
0.674483560000000,,0x00,0xFF
0.674485840000000,,0x00,0xFF
0.674488120000000,,0x00,0xFF
0.674490400000000,,0x00,0xFF
0.674492700000000,,0xFF,0xFF
0.674502700000000,,0xFF,0xFF
0.674508260000000,,0xFF,0x00
0.674513840000000,,0xFF,0xFF
0.674539120000000,,0x50,0xFF	CMD16 SET_BLOCKEN
0.674542120000000,,0x00,0xFF	команда изменения размера блока
0.674545120000000,,0x00,0xFF
0.674548120000000,,0x02,0xFF
0.674551120000000,,0x00,0xFF
0.674554120000000,,0xFF,0xFF
0.674564120000000,,0xFF,0xFF
0.674569700000000,,0xFF,0x00
0.674575260000000,,0xFF,0xFF
0.674600980000000,,0x7A,0xFF	CMD_58 READ_OCR
0.674603280000000,,0x00,0xFF
0.674605560000000,,0x00,0xFF
0.674607840000000,,0x00,0xFF
0.674610120000000,,0x00,0xFF
0.674612420000000,,0xFF,0xFF
0.674622420000000,,0xFF,0xFF
0.674627980000000,,0xFF,0x00\OCR
0.674633560000000,,0xFF,0xC0
0.674640420000000,,0xFF,0xFF
0.674642700000000,,0xFF,0x80/
0.674644980000000,,0xFF,0x00
0.674647280000000,,0xFF,0xFF
0.674659560000000,,0x00,0xFF
0.674704140000000,,0x52,0xFF	CMD_18 READ_MULTIPLE_BLOCK
0.674706420000000,,0x00,0xFF
0.674708700000000,,0x00,0xFF
0.674711000000000,,0x00,0xFF
0.674713280000000,,0x02,0xFF
0.674716000000000,,0xFF,0xFF
0.674731420000000,,0xFF,0xFF
0.674737000000000,,0xFF,0x00
0.674742560000000,,0xFF,0xFF
0.674759000000000,,0xFF,0xFF
0.674764560000000,,0xFF,0xFF
0.674770140000000,,0xFF,0xFF
0.674775700000000,,0xFF,0xFF
0.674781280000000,,0xFF,0xFF
0.674786860000000,,0xFF,0xFF
0.674792420000000,,0xFF,0xFF
0.674798000000000,,0xFF,0xFF
0.674803560000000,,0xFF,0xFF
0.674809140000000,,0xFF,0xFF
0.674814700000000,,0xFF,0xFF
0.674820280000000,,0xFF,0xFF
0.674825860000000,,0xFF,0xFF
0.674831420000000,,0xFF,0xFF
0.674837000000000,,0xFF,0xFF
0.674842560000000,,0xFF,0xFF
0.674848140000000,,0xFF,0xFE	
0.674853720000000,,0xFF,0x44	Первый байт сектора 0х00000002
0.674864140000000,,0xFF,0x69
0.674867140000000,,0xFF,0x6D
0.674870140000000,,0xFF,0x6B
0.674873140000000,,0xFF,0x61
0.674876140000000,,0xFF,0x4D
0.674879140000000,,0xFF,0x00
0.674882140000000,,0xFF,0x53
0.674885140000000,,0xFF,0x44
0.674888140000000,,0xFF,0x2D
0.674891140000000,,0xFF,0x54
0.674894140000000,,0xFF,0x65
0.674897140000000,,0xFF,0x73
0.674900140000000,,0xFF,0x74
0.674903140000000,,0xFF,0x00
0.674906140000000,,0xFF,0x00
0.674909140000000,,0xFF,0x53
0.674912140000000,,0xFF,0x65
0.674915140000000,,0xFF,0x63
0.674918140000000,,0xFF,0x74
0.674921140000000,,0xFF,0x6F
0.674924140000000,,0xFF,0x72
0.674927140000000,,0xFF,0x30
0.674930140000000,,0xFF,0x78
0.674933140000000,,0xFF,0x30
0.674936140000000,,0xFF,0x30
0.674939140000000,,0xFF,0x30
0.674942140000000,,0xFF,0x30
0.674945140000000,,0xFF,0x30
0.674948140000000,,0xFF,0x30
0.674951140000000,,0xFF,0x30
0.674954140000000,,0xFF,0x32
0.674957140000000,,0xFF,0x00
0.674960140000000,,0xFF,0x00
0.674963140000000,,0xFF,0x00
0.674966140000000,,0xFF,0x00
0.674969140000000,,0xFF,0x00
0.674972140000000,,0xFF,0x00
0.674975140000000,,0xFF,0x00
0.674978140000000,,0xFF,0x00
0.674981140000000,,0xFF,0x00
0.674984140000000,,0xFF,0x00
0.674987140000000,,0xFF,0x00
0.674990140000000,,0xFF,0x00
0.674993140000000,,0xFF,0x00
0.674996140000000,,0xFF,0x00
0.674999140000000,,0xFF,0x00
0.675002140000000,,0xFF,0x00
0.675005140000000,,0xFF,0x00
0.675008140000000,,0xFF,0x00
0.675011140000000,,0xFF,0x00
0.675014140000000,,0xFF,0x00
0.675017140000000,,0xFF,0x00
0.675020140000000,,0xFF,0x00
0.675023140000000,,0xFF,0x00
0.675026140000000,,0xFF,0x00
0.675029140000000,,0xFF,0x00
0.675032140000000,,0xFF,0x00
0.675035140000000,,0xFF,0x00
0.675038140000000,,0xFF,0x00
0.675041140000000,,0xFF,0x00
0.675044140000000,,0xFF,0x00
0.675047140000000,,0xFF,0x00
0.675050140000000,,0xFF,0x00
0.675053140000000,,0xFF,0x00
0.675056140000000,,0xFF,0x00
0.675059140000000,,0xFF,0x00
0.675062140000000,,0xFF,0x00
0.675065140000000,,0xFF,0x00
0.675068160000000,,0xFF,0x00
0.675071160000000,,0xFF,0x00
0.675074160000000,,0xFF,0x00
0.675077160000000,,0xFF,0x00
0.675080160000000,,0xFF,0x00
0.675083160000000,,0xFF,0x00
0.675086160000000,,0xFF,0x00
0.675089160000000,,0xFF,0x00
0.675092160000000,,0xFF,0x00
0.675095160000000,,0xFF,0x00
0.675098160000000,,0xFF,0x00
0.675101160000000,,0xFF,0x00
0.675104160000000,,0xFF,0x00
0.675107160000000,,0xFF,0x00
0.675110160000000,,0xFF,0x00
0.675113160000000,,0xFF,0x00
0.675116160000000,,0xFF,0x00
0.675119160000000,,0xFF,0x00
0.675122160000000,,0xFF,0x00
0.675125160000000,,0xFF,0x00
0.675128160000000,,0xFF,0x00
0.675131160000000,,0xFF,0x00
0.675134160000000,,0xFF,0x00
0.675137160000000,,0xFF,0x00
0.675140160000000,,0xFF,0x00
0.675143160000000,,0xFF,0x00
0.675146160000000,,0xFF,0x00
0.675149160000000,,0xFF,0x00
0.675152160000000,,0xFF,0x00
0.675155160000000,,0xFF,0x00
0.675158160000000,,0xFF,0x00
0.675161160000000,,0xFF,0x00
0.675164160000000,,0xFF,0x00
0.675167160000000,,0xFF,0x00
0.675170160000000,,0xFF,0x00
0.675173160000000,,0xFF,0x00
0.675176160000000,,0xFF,0x00
0.675179160000000,,0xFF,0x00
0.675182160000000,,0xFF,0x00
0.675185160000000,,0xFF,0x00
0.675188160000000,,0xFF,0x00
0.675191160000000,,0xFF,0x00
0.675194160000000,,0xFF,0x00
0.675197160000000,,0xFF,0x00
0.675200160000000,,0xFF,0x00
0.675203160000000,,0xFF,0x00
0.675206160000000,,0xFF,0x00
0.675209160000000,,0xFF,0x00
0.675212160000000,,0xFF,0x00
0.675215160000000,,0xFF,0x00
0.675218160000000,,0xFF,0x00
0.675221160000000,,0xFF,0x00
0.675224160000000,,0xFF,0x00
0.675227160000000,,0xFF,0x00
0.675230160000000,,0xFF,0x00
0.675233160000000,,0xFF,0x00
0.675236160000000,,0xFF,0x00
0.675239160000000,,0xFF,0x00
0.675242160000000,,0xFF,0x00
0.675245160000000,,0xFF,0x00
0.675248440000000,,0xFF,0x00
0.675251440000000,,0xFF,0x00
0.675254440000000,,0xFF,0x00
0.675257440000000,,0xFF,0x00
0.675260440000000,,0xFF,0x00
0.675263440000000,,0xFF,0x00
0.675266440000000,,0xFF,0x00
0.675269440000000,,0xFF,0x00
0.675272440000000,,0xFF,0x00
0.675275440000000,,0xFF,0x00
0.675278440000000,,0xFF,0x00
0.675281440000000,,0xFF,0x00
0.675284440000000,,0xFF,0x00
0.675287440000000,,0xFF,0x00
0.675290440000000,,0xFF,0x00
0.675293440000000,,0xFF,0x00
0.675296440000000,,0xFF,0x00
0.675299440000000,,0xFF,0x00
0.675302440000000,,0xFF,0x00
0.675305440000000,,0xFF,0x00
0.675308440000000,,0xFF,0x00
0.675311440000000,,0xFF,0x00
0.675314440000000,,0xFF,0x00
0.675317440000000,,0xFF,0x00
0.675320440000000,,0xFF,0x00
0.675323440000000,,0xFF,0x00
0.675326440000000,,0xFF,0x00
0.675329440000000,,0xFF,0x00
0.675332440000000,,0xFF,0x00
0.675335440000000,,0xFF,0x00
0.675338440000000,,0xFF,0x00
0.675341440000000,,0xFF,0x00
0.675344440000000,,0xFF,0x00
0.675347440000000,,0xFF,0x00
0.675350440000000,,0xFF,0x00
0.675353440000000,,0xFF,0x00
0.675356440000000,,0xFF,0x00
0.675359440000000,,0xFF,0x00
0.675362440000000,,0xFF,0x00
0.675365440000000,,0xFF,0x00
0.675368460000000,,0xFF,0x00
0.675371440000000,,0xFF,0x00
0.675374460000000,,0xFF,0x00
0.675377460000000,,0xFF,0x00
0.675380460000000,,0xFF,0x00
0.675383460000000,,0xFF,0x00
0.675386460000000,,0xFF,0x00
0.675389460000000,,0xFF,0x00
0.675392460000000,,0xFF,0x00
0.675395460000000,,0xFF,0x00
0.675398460000000,,0xFF,0x00
0.675401460000000,,0xFF,0x00
0.675404460000000,,0xFF,0x00
0.675407460000000,,0xFF,0x00
0.675410460000000,,0xFF,0x00
0.675413460000000,,0xFF,0x00
0.675416460000000,,0xFF,0x00
0.675419460000000,,0xFF,0x00
0.675422460000000,,0xFF,0x00
0.675425460000000,,0xFF,0x00
0.675428460000000,,0xFF,0x00
0.675431460000000,,0xFF,0x00
0.675434460000000,,0xFF,0x00
0.675437460000000,,0xFF,0x00
0.675440460000000,,0xFF,0x00
0.675443460000000,,0xFF,0x00
0.675446460000000,,0xFF,0x00
0.675449460000000,,0xFF,0x00
0.675452460000000,,0xFF,0x00
0.675455460000000,,0xFF,0x00
0.675458460000000,,0xFF,0x00
0.675461460000000,,0xFF,0x00
0.675464460000000,,0xFF,0x00
0.675467460000000,,0xFF,0x00
0.675470460000000,,0xFF,0x00
0.675473460000000,,0xFF,0x00
0.675476460000000,,0xFF,0x00
0.675479460000000,,0xFF,0x00
0.675482460000000,,0xFF,0x00
0.675485460000000,,0xFF,0x00
0.675488460000000,,0xFF,0x00
0.675491460000000,,0xFF,0x00
0.675494460000000,,0xFF,0x00
0.675497460000000,,0xFF,0x00
0.675500460000000,,0xFF,0x00
0.675503460000000,,0xFF,0x00
0.675506460000000,,0xFF,0x00
0.675509460000000,,0xFF,0x00
0.675512460000000,,0xFF,0x00
0.675515460000000,,0xFF,0x00
0.675518460000000,,0xFF,0x00
0.675521460000000,,0xFF,0x00
0.675524460000000,,0xFF,0x00
0.675527460000000,,0xFF,0x00
0.675530460000000,,0xFF,0x00
0.675533460000000,,0xFF,0x00
0.675536460000000,,0xFF,0x00
0.675539460000000,,0xFF,0x00
0.675542460000000,,0xFF,0x00
0.675545460000000,,0xFF,0x00
0.675548460000000,,0xFF,0x00
0.675551460000000,,0xFF,0x00
0.675554460000000,,0xFF,0x00
0.675557460000000,,0xFF,0x00
0.675560460000000,,0xFF,0x00
0.675563460000000,,0xFF,0x00
0.675566460000000,,0xFF,0x00
0.675569460000000,,0xFF,0x00
0.675572460000000,,0xFF,0x00
0.675575460000000,,0xFF,0x00
0.675578460000000,,0xFF,0x00
0.675581460000000,,0xFF,0x00
0.675584460000000,,0xFF,0x00
0.675587460000000,,0xFF,0x00
0.675590460000000,,0xFF,0x00
0.675593460000000,,0xFF,0x00
0.675596460000000,,0xFF,0x00
0.675599460000000,,0xFF,0x00
0.675602460000000,,0xFF,0x00
0.675605460000000,,0xFF,0x00
0.675608460000000,,0xFF,0x00
0.675611460000000,,0xFF,0x00
0.675614460000000,,0xFF,0x00
0.675617460000000,,0xFF,0x00
0.675620460000000,,0xFF,0x00
0.675623460000000,,0xFF,0x00
0.675626460000000,,0xFF,0x00
0.675629460000000,,0xFF,0x00
0.675632740000000,,0xFF,0x00
0.675635740000000,,0xFF,0x00
0.675638740000000,,0xFF,0x00
0.675641740000000,,0xFF,0x00
0.675644740000000,,0xFF,0x00
0.675647740000000,,0xFF,0x00
0.675650740000000,,0xFF,0x00
0.675653740000000,,0xFF,0x00
0.675656740000000,,0xFF,0x00
0.675659740000000,,0xFF,0x00
0.675662740000000,,0xFF,0x00
0.675665740000000,,0xFF,0x00
0.675668740000000,,0xFF,0x00
0.675671760000000,,0xFF,0x00
0.675674760000000,,0xFF,0x00
0.675677760000000,,0xFF,0x00
0.675680760000000,,0xFF,0x00
0.675683760000000,,0xFF,0x00
0.675686760000000,,0xFF,0x00
0.675689760000000,,0xFF,0x00
0.675692760000000,,0xFF,0x00
0.675695760000000,,0xFF,0x00
0.675698760000000,,0xFF,0x00
0.675701760000000,,0xFF,0x00
0.675704760000000,,0xFF,0x00
0.675707760000000,,0xFF,0x00
0.675710760000000,,0xFF,0x00
0.675713760000000,,0xFF,0x00
0.675716760000000,,0xFF,0x00
0.675719760000000,,0xFF,0x00
0.675722760000000,,0xFF,0x00
0.675725760000000,,0xFF,0x00
0.675728760000000,,0xFF,0x00
0.675731760000000,,0xFF,0x00
0.675734760000000,,0xFF,0x00
0.675737760000000,,0xFF,0x00
0.675740760000000,,0xFF,0x00
0.675743760000000,,0xFF,0x00
0.675746760000000,,0xFF,0x00
0.675749760000000,,0xFF,0x00
0.675752760000000,,0xFF,0x00
0.675755760000000,,0xFF,0x00
0.675758760000000,,0xFF,0x00
0.675761760000000,,0xFF,0x00
0.675764760000000,,0xFF,0x00
0.675767760000000,,0xFF,0x00
0.675770760000000,,0xFF,0x00
0.675773760000000,,0xFF,0x00
0.675776760000000,,0xFF,0x00
0.675779760000000,,0xFF,0x00
0.675782760000000,,0xFF,0x00
0.675785760000000,,0xFF,0x00
0.675788760000000,,0xFF,0x00
0.675791760000000,,0xFF,0x00
0.675794760000000,,0xFF,0x00
0.675797760000000,,0xFF,0x00
0.675800760000000,,0xFF,0x00
0.675803760000000,,0xFF,0x00
0.675806760000000,,0xFF,0x00
0.675809760000000,,0xFF,0x00
0.675812760000000,,0xFF,0x00
0.675815760000000,,0xFF,0x00
0.675818760000000,,0xFF,0x00
0.675821760000000,,0xFF,0x00
0.675824760000000,,0xFF,0x00
0.675827760000000,,0xFF,0x00
0.675830760000000,,0xFF,0x00
0.675833760000000,,0xFF,0x00
0.675836760000000,,0xFF,0x00
0.675839760000000,,0xFF,0x00
0.675842760000000,,0xFF,0x00
0.675845760000000,,0xFF,0x00
0.675848760000000,,0xFF,0x00
0.675851760000000,,0xFF,0x00
0.675854760000000,,0xFF,0x00
0.675857760000000,,0xFF,0x00
0.675860760000000,,0xFF,0x00
0.675863760000000,,0xFF,0x00
0.675866760000000,,0xFF,0x00
0.675869760000000,,0xFF,0x00
0.675872760000000,,0xFF,0x00
0.675875760000000,,0xFF,0x00
0.675878760000000,,0xFF,0x00
0.675881760000000,,0xFF,0x00
0.675884760000000,,0xFF,0x00
0.675887760000000,,0xFF,0x00
0.675890760000000,,0xFF,0x00
0.675893760000000,,0xFF,0x00
0.675896760000000,,0xFF,0x00
0.675899760000000,,0xFF,0x00
0.675902760000000,,0xFF,0x00
0.675905760000000,,0xFF,0x00
0.675908760000000,,0xFF,0x00
0.675911760000000,,0xFF,0x00
0.675914760000000,,0xFF,0x00
0.675917760000000,,0xFF,0x00
0.675920760000000,,0xFF,0x00
0.675923760000000,,0xFF,0x00
0.675926760000000,,0xFF,0x00
0.675929760000000,,0xFF,0x00
0.675932760000000,,0xFF,0x00
0.675935760000000,,0xFF,0x00
0.675938760000000,,0xFF,0x00
0.675941760000000,,0xFF,0x00
0.675944760000000,,0xFF,0x00
0.675947760000000,,0xFF,0x00
0.675950760000000,,0xFF,0x00
0.675953760000000,,0xFF,0x00
0.675956760000000,,0xFF,0x00
0.675959760000000,,0xFF,0x00
0.675962760000000,,0xFF,0x00
0.675965760000000,,0xFF,0x00
0.675968760000000,,0xFF,0x00
0.675971760000000,,0xFF,0x00
0.675974760000000,,0xFF,0x00
0.675977760000000,,0xFF,0x00
0.675980760000000,,0xFF,0x00
0.675983760000000,,0xFF,0x00
0.675986760000000,,0xFF,0x00
0.675989760000000,,0xFF,0x00
0.675992760000000,,0xFF,0x00
0.675995760000000,,0xFF,0x00
0.675998760000000,,0xFF,0x00
0.676001760000000,,0xFF,0x00
0.676004760000000,,0xFF,0x00
0.676007760000000,,0xFF,0x00
0.676010760000000,,0xFF,0x00
0.676013760000000,,0xFF,0x00
0.676017060000000,,0xFF,0x00
0.676020060000000,,0xFF,0x00
0.676023060000000,,0xFF,0x00
0.676026060000000,,0xFF,0x00
0.676029060000000,,0xFF,0x00
0.676032060000000,,0xFF,0x00
0.676035060000000,,0xFF,0x00
0.676038060000000,,0xFF,0x00
0.676041060000000,,0xFF,0x00
0.676044060000000,,0xFF,0x00
0.676047060000000,,0xFF,0x00
0.676050060000000,,0xFF,0x00
0.676053060000000,,0xFF,0x00
0.676056060000000,,0xFF,0x00
0.676059060000000,,0xFF,0x00
0.676062060000000,,0xFF,0x00
0.676065060000000,,0xFF,0x00
0.676068060000000,,0xFF,0x00
0.676071060000000,,0xFF,0x00
0.676074060000000,,0xFF,0x00
0.676077060000000,,0xFF,0x00
0.676080060000000,,0xFF,0x00
0.676083060000000,,0xFF,0x00
0.676086060000000,,0xFF,0x00
0.676089060000000,,0xFF,0x00
0.676092060000000,,0xFF,0x00
0.676095060000000,,0xFF,0x00
0.676098060000000,,0xFF,0x00
0.676101060000000,,0xFF,0x00
0.676104060000000,,0xFF,0x00
0.676107060000000,,0xFF,0x00
0.676110060000000,,0xFF,0x00
0.676113060000000,,0xFF,0x00
0.676116060000000,,0xFF,0x00
0.676119060000000,,0xFF,0x00
0.676122060000000,,0xFF,0x00
0.676125060000000,,0xFF,0x00
0.676128060000000,,0xFF,0x00
0.676131060000000,,0xFF,0x00
0.676134060000000,,0xFF,0x00
0.676137060000000,,0xFF,0x00
0.676140060000000,,0xFF,0x00
0.676143060000000,,0xFF,0x00
0.676146060000000,,0xFF,0x00
0.676149060000000,,0xFF,0x00
0.676152060000000,,0xFF,0x00
0.676155060000000,,0xFF,0x00
0.676158060000000,,0xFF,0x00
0.676161060000000,,0xFF,0x00
0.676164060000000,,0xFF,0x00
0.676167060000000,,0xFF,0x00
0.676170060000000,,0xFF,0x00
0.676173060000000,,0xFF,0x00
0.676176060000000,,0xFF,0x00
0.676179060000000,,0xFF,0x00
0.676182060000000,,0xFF,0x00
0.676185060000000,,0xFF,0x00
0.676188060000000,,0xFF,0x00
0.676191060000000,,0xFF,0x00
0.676194060000000,,0xFF,0x00
0.676197060000000,,0xFF,0x00
0.676200060000000,,0xFF,0x00
0.676203060000000,,0xFF,0x00
0.676206060000000,,0xFF,0x00
0.676209060000000,,0xFF,0x00
0.676212060000000,,0xFF,0x00
0.676215060000000,,0xFF,0x00
0.676218060000000,,0xFF,0x00
0.676221060000000,,0xFF,0x00
0.676224060000000,,0xFF,0x00
0.676227060000000,,0xFF,0x00
0.676230060000000,,0xFF,0x00
0.676233060000000,,0xFF,0x00
0.676236060000000,,0xFF,0x00
0.676239060000000,,0xFF,0x00
0.676242060000000,,0xFF,0x00
0.676245060000000,,0xFF,0x00
0.676248060000000,,0xFF,0x00
0.676251060000000,,0xFF,0x00
0.676254060000000,,0xFF,0x00
0.676257060000000,,0xFF,0x00
0.676260060000000,,0xFF,0x00
0.676263060000000,,0xFF,0x00
0.676266060000000,,0xFF,0x00
0.676269060000000,,0xFF,0x00
0.676272060000000,,0xFF,0x00
0.676275060000000,,0xFF,0x00
0.676278060000000,,0xFF,0x00
0.676281060000000,,0xFF,0x00
0.676284060000000,,0xFF,0x00
0.676287060000000,,0xFF,0x00
0.676290060000000,,0xFF,0x00
0.676293060000000,,0xFF,0x00
0.676296060000000,,0xFF,0x00
0.676299060000000,,0xFF,0x00
0.676302060000000,,0xFF,0x53
0.676305060000000,,0xFF,0x65
0.676308060000000,,0xFF,0x63
0.676311060000000,,0xFF,0x74
0.676314060000000,,0xFF,0x6F
0.676317060000000,,0xFF,0x72
0.676320060000000,,0xFF,0x30
0.676323060000000,,0xFF,0x78
0.676326060000000,,0xFF,0x30
0.676329060000000,,0xFF,0x30
0.676332060000000,,0xFF,0x30
0.676335060000000,,0xFF,0x30
0.676338060000000,,0xFF,0x30
0.676341060000000,,0xFF,0x30
0.676344060000000,,0xFF,0x30
0.676347060000000,,0xFF,0x32
0.676350060000000,,0xFF,0x00
0.676353060000000,,0xFF,0x00
0.676356060000000,,0xFF,0x00
0.676359060000000,,0xFF,0x00
0.676362060000000,,0xFF,0x00
0.676365060000000,,0xFF,0x00
0.676368060000000,,0xFF,0x00
0.676371060000000,,0xFF,0x00
0.676374060000000,,0xFF,0x00
0.676377060000000,,0xFF,0x00
0.676380060000000,,0xFF,0x00
0.676383060000000,,0xFF,0x00
0.676386060000000,,0xFF,0x00
0.676389060000000,,0xFF,0x45
0.676392060000000,,0xFF,0x6E
0.676395060000000,,0xFF,0x64	Последний байт сектора 0х00000002
0.676398060000000,,0xFF,0x11	CRC16
0.676400780000000,,0xFF,0xD8	CRC16
0.676403080000000,,0xFF,0xFF
0.676415080000000,,0xFF,0xFF
0.676420640000000,,0xFF,0xFE
0.676426220000000,,0xFF,0x44	Первый байт сектора 0х00000003
0.676436640000000,,0xFF,0x69
0.676439640000000,,0xFF,0x6D
0.676442640000000,,0xFF,0x6B
0.676445640000000,,0xFF,0x61
0.676448640000000,,0xFF,0x4D
0.676451640000000,,0xFF,0x20
0.676454640000000,,0xFF,0x53
0.676457640000000,,0xFF,0x44
0.676460640000000,,0xFF,0x2D
0.676463640000000,,0xFF,0x54
0.676466640000000,,0xFF,0x65
0.676469640000000,,0xFF,0x73
0.676472640000000,,0xFF,0x74
0.676475640000000,,0xFF,0x00
0.676478640000000,,0xFF,0x00
0.676481640000000,,0xFF,0x53
0.676484640000000,,0xFF,0x65
0.676487640000000,,0xFF,0x63
0.676490640000000,,0xFF,0x74
0.676493640000000,,0xFF,0x6F
0.676496640000000,,0xFF,0x72
0.676499640000000,,0xFF,0x30
0.676502640000000,,0xFF,0x78
0.676505640000000,,0xFF,0x30
0.676508640000000,,0xFF,0x30
0.676511640000000,,0xFF,0x30
0.676514640000000,,0xFF,0x30
0.676517640000000,,0xFF,0x30
0.676520640000000,,0xFF,0x30
0.676523640000000,,0xFF,0x30
0.676526640000000,,0xFF,0x33
0.676529640000000,,0xFF,0x00
0.676532640000000,,0xFF,0x00
0.676535640000000,,0xFF,0x00
0.676538640000000,,0xFF,0x00
0.676541640000000,,0xFF,0x00
0.676544640000000,,0xFF,0x00
0.676547640000000,,0xFF,0x00
0.676550640000000,,0xFF,0x00
0.676553640000000,,0xFF,0x00
0.676556640000000,,0xFF,0x00
0.676559640000000,,0xFF,0x00
0.676562640000000,,0xFF,0x00
0.676565640000000,,0xFF,0x00
0.676568640000000,,0xFF,0x00
0.676571640000000,,0xFF,0x00
0.676574640000000,,0xFF,0x00
0.676577640000000,,0xFF,0x00
0.676580640000000,,0xFF,0x00
0.676583640000000,,0xFF,0x00
0.676586640000000,,0xFF,0x00
0.676589640000000,,0xFF,0x00
0.676592660000000,,0xFF,0x00
0.676595660000000,,0xFF,0x00
0.676598660000000,,0xFF,0x00
0.676601660000000,,0xFF,0x00
0.676604660000000,,0xFF,0x00
0.676607660000000,,0xFF,0x00
0.676610660000000,,0xFF,0x00
0.676613660000000,,0xFF,0x00
0.676616660000000,,0xFF,0x00
0.676619660000000,,0xFF,0x00
0.676622660000000,,0xFF,0x00
0.676625660000000,,0xFF,0x00
0.676628660000000,,0xFF,0x00
0.676631660000000,,0xFF,0x00
0.676634660000000,,0xFF,0x00
0.676637660000000,,0xFF,0x00
0.676640660000000,,0xFF,0x00
0.676643660000000,,0xFF,0x00
0.676646660000000,,0xFF,0x00
0.676649660000000,,0xFF,0x00
0.676652660000000,,0xFF,0x00
0.676655660000000,,0xFF,0x00
0.676658660000000,,0xFF,0x00
0.676661660000000,,0xFF,0x00
0.676664660000000,,0xFF,0x00
0.676667660000000,,0xFF,0x00
0.676670660000000,,0xFF,0x00
0.676673660000000,,0xFF,0x00
0.676676660000000,,0xFF,0x00
0.676679660000000,,0xFF,0x00
0.676682660000000,,0xFF,0x00
0.676685660000000,,0xFF,0x00
0.676688660000000,,0xFF,0x00
0.676691660000000,,0xFF,0x00
0.676694660000000,,0xFF,0x00
0.676697660000000,,0xFF,0x00
0.676700660000000,,0xFF,0x00
0.676703660000000,,0xFF,0x00
0.676706660000000,,0xFF,0x00
0.676709660000000,,0xFF,0x00
0.676712660000000,,0xFF,0x00
0.676715660000000,,0xFF,0x00
0.676718660000000,,0xFF,0x00
0.676721660000000,,0xFF,0x00
0.676724660000000,,0xFF,0x00
0.676727660000000,,0xFF,0x00
0.676730660000000,,0xFF,0x00
0.676733660000000,,0xFF,0x00
0.676736660000000,,0xFF,0x00
0.676739660000000,,0xFF,0x00
0.676742660000000,,0xFF,0x00
0.676745660000000,,0xFF,0x00
0.676748660000000,,0xFF,0x00
0.676751660000000,,0xFF,0x00
0.676754660000000,,0xFF,0x00
0.676757660000000,,0xFF,0x00
0.676760660000000,,0xFF,0x00
0.676763660000000,,0xFF,0x00
0.676766660000000,,0xFF,0x00
0.676769660000000,,0xFF,0x00
0.676772660000000,,0xFF,0x00
0.676775660000000,,0xFF,0x00
0.676778660000000,,0xFF,0x00
0.676781660000000,,0xFF,0x00
0.676784660000000,,0xFF,0x00
0.676787660000000,,0xFF,0x00
0.676790660000000,,0xFF,0x00
0.676793660000000,,0xFF,0x00
0.676796660000000,,0xFF,0x00
0.676799660000000,,0xFF,0x00
0.676802660000000,,0xFF,0x00
0.676805660000000,,0xFF,0x00
0.676808660000000,,0xFF,0x00
0.676811660000000,,0xFF,0x00
0.676814660000000,,0xFF,0x00
0.676817660000000,,0xFF,0x00
0.676820940000000,,0xFF,0x00
0.676823940000000,,0xFF,0x00
0.676826940000000,,0xFF,0x00
0.676829940000000,,0xFF,0x00
0.676832940000000,,0xFF,0x00
0.676835940000000,,0xFF,0x00
0.676838940000000,,0xFF,0x00
0.676841940000000,,0xFF,0x00
0.676844940000000,,0xFF,0x00
0.676847940000000,,0xFF,0x00
0.676850940000000,,0xFF,0x00
0.676853940000000,,0xFF,0x00
0.676856940000000,,0xFF,0x00
0.676859940000000,,0xFF,0x00
0.676862940000000,,0xFF,0x00
0.676865940000000,,0xFF,0x00
0.676868940000000,,0xFF,0x00
0.676871940000000,,0xFF,0x00
0.676874940000000,,0xFF,0x00
0.676877940000000,,0xFF,0x00
0.676880940000000,,0xFF,0x00
0.676883940000000,,0xFF,0x00
0.676886940000000,,0xFF,0x00
0.676889940000000,,0xFF,0x00
0.676892960000000,,0xFF,0x00
0.676895960000000,,0xFF,0x00
0.676898960000000,,0xFF,0x00
0.676901960000000,,0xFF,0x00
0.676904960000000,,0xFF,0x00
0.676907960000000,,0xFF,0x00
0.676910960000000,,0xFF,0x00
0.676913960000000,,0xFF,0x00
0.676916960000000,,0xFF,0x00
0.676919960000000,,0xFF,0x00
0.676922960000000,,0xFF,0x00
0.676925960000000,,0xFF,0x00
0.676928960000000,,0xFF,0x00
0.676931960000000,,0xFF,0x00
0.676934960000000,,0xFF,0x00
0.676937960000000,,0xFF,0x00
0.676940960000000,,0xFF,0x00
0.676943960000000,,0xFF,0x00
0.676946960000000,,0xFF,0x00
0.676949960000000,,0xFF,0x00
0.676952960000000,,0xFF,0x00
0.676955960000000,,0xFF,0x00
0.676958960000000,,0xFF,0x00
0.676961960000000,,0xFF,0x00
0.676964960000000,,0xFF,0x00
0.676967960000000,,0xFF,0x00
0.676970960000000,,0xFF,0x00
0.676973960000000,,0xFF,0x00
0.676976960000000,,0xFF,0x00
0.676979960000000,,0xFF,0x00
0.676982960000000,,0xFF,0x00
0.676985960000000,,0xFF,0x00
0.676988960000000,,0xFF,0x00
0.676991960000000,,0xFF,0x00
0.676994960000000,,0xFF,0x00
0.676997960000000,,0xFF,0x00
0.677000960000000,,0xFF,0x00
0.677003960000000,,0xFF,0x00
0.677006960000000,,0xFF,0x00
0.677009960000000,,0xFF,0x00
0.677012960000000,,0xFF,0x00
0.677015960000000,,0xFF,0x00
0.677018960000000,,0xFF,0x00
0.677021960000000,,0xFF,0x00
0.677024960000000,,0xFF,0x00
0.677027960000000,,0xFF,0x00
0.677030960000000,,0xFF,0x00
0.677033960000000,,0xFF,0x00
0.677036960000000,,0xFF,0x00
0.677039960000000,,0xFF,0x00
0.677042960000000,,0xFF,0x00
0.677045960000000,,0xFF,0x00
0.677048960000000,,0xFF,0x00
0.677051960000000,,0xFF,0x00
0.677054960000000,,0xFF,0x00
0.677057960000000,,0xFF,0x00
0.677060960000000,,0xFF,0x00
0.677063960000000,,0xFF,0x00
0.677066960000000,,0xFF,0x00
0.677069960000000,,0xFF,0x00
0.677072960000000,,0xFF,0x00
0.677075960000000,,0xFF,0x00
0.677078960000000,,0xFF,0x00
0.677081960000000,,0xFF,0x00
0.677084960000000,,0xFF,0x00
0.677087960000000,,0xFF,0x00
0.677090960000000,,0xFF,0x00
0.677093960000000,,0xFF,0x00
0.677096960000000,,0xFF,0x00
0.677099960000000,,0xFF,0x00
0.677102960000000,,0xFF,0x00
0.677105960000000,,0xFF,0x00
0.677108960000000,,0xFF,0x00
0.677111960000000,,0xFF,0x00
0.677114960000000,,0xFF,0x00
0.677117960000000,,0xFF,0x00
0.677120960000000,,0xFF,0x00
0.677123960000000,,0xFF,0x00
0.677126960000000,,0xFF,0x00
0.677129960000000,,0xFF,0x00
0.677132960000000,,0xFF,0x00
0.677135960000000,,0xFF,0x00
0.677138960000000,,0xFF,0x00
0.677141960000000,,0xFF,0x00
0.677144960000000,,0xFF,0x00
0.677147960000000,,0xFF,0x00
0.677150960000000,,0xFF,0x00
0.677153960000000,,0xFF,0x00
0.677156960000000,,0xFF,0x00
0.677159960000000,,0xFF,0x00
0.677162960000000,,0xFF,0x00
0.677165960000000,,0xFF,0x00
0.677168960000000,,0xFF,0x00
0.677171960000000,,0xFF,0x00
0.677174960000000,,0xFF,0x00
0.677177960000000,,0xFF,0x00
0.677180960000000,,0xFF,0x00
0.677183960000000,,0xFF,0x00
0.677186960000000,,0xFF,0x00
0.677189960000000,,0xFF,0x00
0.677192960000000,,0xFF,0x00
0.677195960000000,,0xFF,0x00
0.677198960000000,,0xFF,0x00
0.677201960000000,,0xFF,0x00
0.677205260000000,,0xFF,0x00
0.677208260000000,,0xFF,0x00
0.677211260000000,,0xFF,0x00
0.677214260000000,,0xFF,0x00
0.677217260000000,,0xFF,0x00
0.677220260000000,,0xFF,0x00
0.677223260000000,,0xFF,0x00
0.677226260000000,,0xFF,0x00
0.677229260000000,,0xFF,0x00
0.677232260000000,,0xFF,0x00
0.677235260000000,,0xFF,0x00
0.677238260000000,,0xFF,0x00
0.677241260000000,,0xFF,0x00
0.677244260000000,,0xFF,0x00
0.677247260000000,,0xFF,0x00
0.677250260000000,,0xFF,0x00
0.677253260000000,,0xFF,0x00
0.677256260000000,,0xFF,0x00
0.677259260000000,,0xFF,0x00
0.677262260000000,,0xFF,0x00
0.677265260000000,,0xFF,0x00
0.677268260000000,,0xFF,0x00
0.677271260000000,,0xFF,0x00
0.677274260000000,,0xFF,0x00
0.677277260000000,,0xFF,0x00
0.677280260000000,,0xFF,0x00
0.677283260000000,,0xFF,0x00
0.677286260000000,,0xFF,0x00
0.677289260000000,,0xFF,0x00
0.677292260000000,,0xFF,0x00
0.677295260000000,,0xFF,0x00
0.677298260000000,,0xFF,0x00
0.677301260000000,,0xFF,0x00
0.677304260000000,,0xFF,0x00
0.677307260000000,,0xFF,0x00
0.677310260000000,,0xFF,0x00
0.677313260000000,,0xFF,0x00
0.677316260000000,,0xFF,0x00
0.677319260000000,,0xFF,0x00
0.677322260000000,,0xFF,0x00
0.677325260000000,,0xFF,0x00
0.677328260000000,,0xFF,0x00
0.677331260000000,,0xFF,0x00
0.677334260000000,,0xFF,0x00
0.677337260000000,,0xFF,0x00
0.677340260000000,,0xFF,0x00
0.677343260000000,,0xFF,0x00
0.677346260000000,,0xFF,0x00
0.677349260000000,,0xFF,0x00
0.677352260000000,,0xFF,0x00
0.677355260000000,,0xFF,0x00
0.677358260000000,,0xFF,0x00
0.677361260000000,,0xFF,0x00
0.677364260000000,,0xFF,0x00
0.677367260000000,,0xFF,0x00
0.677370260000000,,0xFF,0x00
0.677373260000000,,0xFF,0x00
0.677376260000000,,0xFF,0x00
0.677379260000000,,0xFF,0x00
0.677382260000000,,0xFF,0x00
0.677385260000000,,0xFF,0x00
0.677388260000000,,0xFF,0x00
0.677391260000000,,0xFF,0x00
0.677394260000000,,0xFF,0x00
0.677397260000000,,0xFF,0x00
0.677400260000000,,0xFF,0x00
0.677403260000000,,0xFF,0x00
0.677406260000000,,0xFF,0x00
0.677409260000000,,0xFF,0x00
0.677412260000000,,0xFF,0x00
0.677415260000000,,0xFF,0x00
0.677418260000000,,0xFF,0x00
0.677421260000000,,0xFF,0x00
0.677424260000000,,0xFF,0x00
0.677427260000000,,0xFF,0x00
0.677430260000000,,0xFF,0x00
0.677433260000000,,0xFF,0x00
0.677436260000000,,0xFF,0x00
0.677439260000000,,0xFF,0x00
0.677442260000000,,0xFF,0x00
0.677445260000000,,0xFF,0x00
0.677448260000000,,0xFF,0x00
0.677451260000000,,0xFF,0x00
0.677454260000000,,0xFF,0x00
0.677457260000000,,0xFF,0x00
0.677460260000000,,0xFF,0x00
0.677463260000000,,0xFF,0x00
0.677466260000000,,0xFF,0x00
0.677469260000000,,0xFF,0x00
0.677472260000000,,0xFF,0x00
0.677475260000000,,0xFF,0x00
0.677478260000000,,0xFF,0x00
0.677481260000000,,0xFF,0x00
0.677484260000000,,0xFF,0x00
0.677487260000000,,0xFF,0x00
0.677490260000000,,0xFF,0x00
0.677493260000000,,0xFF,0x00
0.677496260000000,,0xFF,0x00
0.677499260000000,,0xFF,0x00
0.677502260000000,,0xFF,0x00
0.677505260000000,,0xFF,0x00
0.677508260000000,,0xFF,0x00
0.677511260000000,,0xFF,0x00
0.677514260000000,,0xFF,0x00
0.677517260000000,,0xFF,0x00
0.677520260000000,,0xFF,0x00
0.677523260000000,,0xFF,0x00
0.677526260000000,,0xFF,0x00
0.677529260000000,,0xFF,0x00
0.677532260000000,,0xFF,0x00
0.677535260000000,,0xFF,0x00
0.677538260000000,,0xFF,0x00
0.677541260000000,,0xFF,0x00
0.677544260000000,,0xFF,0x00
0.677547260000000,,0xFF,0x00
0.677550260000000,,0xFF,0x00
0.677553260000000,,0xFF,0x00
0.677556260000000,,0xFF,0x00
0.677559260000000,,0xFF,0x00
0.677562260000000,,0xFF,0x00
0.677565260000000,,0xFF,0x00
0.677568260000000,,0xFF,0x00
0.677571260000000,,0xFF,0x00
0.677574260000000,,0xFF,0x00
0.677577260000000,,0xFF,0x00
0.677580260000000,,0xFF,0x00
0.677583260000000,,0xFF,0x00
0.677586260000000,,0xFF,0x00
0.677589560000000,,0xFF,0x00
0.677592560000000,,0xFF,0x00
0.677595560000000,,0xFF,0x00
0.677598560000000,,0xFF,0x00
0.677601560000000,,0xFF,0x00
0.677604560000000,,0xFF,0x00
0.677607560000000,,0xFF,0x00
0.677610560000000,,0xFF,0x00
0.677613560000000,,0xFF,0x00
0.677616560000000,,0xFF,0x00
0.677619560000000,,0xFF,0x00
0.677622560000000,,0xFF,0x00
0.677625560000000,,0xFF,0x00
0.677628560000000,,0xFF,0x00
0.677631560000000,,0xFF,0x00
0.677634560000000,,0xFF,0x00
0.677637560000000,,0xFF,0x00
0.677640560000000,,0xFF,0x00
0.677643560000000,,0xFF,0x00
0.677646560000000,,0xFF,0x00
0.677649560000000,,0xFF,0x00
0.677652560000000,,0xFF,0x00
0.677655560000000,,0xFF,0x00
0.677658560000000,,0xFF,0x00
0.677661560000000,,0xFF,0x00
0.677664560000000,,0xFF,0x00
0.677667560000000,,0xFF,0x00
0.677670560000000,,0xFF,0x00
0.677673560000000,,0xFF,0x00
0.677676560000000,,0xFF,0x00
0.677679560000000,,0xFF,0x00
0.677682560000000,,0xFF,0x00
0.677685560000000,,0xFF,0x00
0.677688560000000,,0xFF,0x00
0.677691560000000,,0xFF,0x00
0.677694560000000,,0xFF,0x00
0.677697560000000,,0xFF,0x00
0.677700560000000,,0xFF,0x00
0.677703560000000,,0xFF,0x00
0.677706560000000,,0xFF,0x00
0.677709560000000,,0xFF,0x00
0.677712560000000,,0xFF,0x00
0.677715560000000,,0xFF,0x00
0.677718560000000,,0xFF,0x00
0.677721560000000,,0xFF,0x00
0.677724560000000,,0xFF,0x00
0.677727560000000,,0xFF,0x00
0.677730560000000,,0xFF,0x00
0.677733560000000,,0xFF,0x00
0.677736560000000,,0xFF,0x00
0.677739560000000,,0xFF,0x00
0.677742560000000,,0xFF,0x00
0.677745560000000,,0xFF,0x00
0.677748560000000,,0xFF,0x00
0.677751560000000,,0xFF,0x00
0.677754560000000,,0xFF,0x00
0.677757560000000,,0xFF,0x00
0.677760560000000,,0xFF,0x00
0.677763560000000,,0xFF,0x00
0.677766560000000,,0xFF,0x00
0.677769560000000,,0xFF,0x00
0.677772560000000,,0xFF,0x00
0.677775560000000,,0xFF,0x00
0.677778560000000,,0xFF,0x00
0.677781560000000,,0xFF,0x00
0.677784560000000,,0xFF,0x00
0.677787560000000,,0xFF,0x00
0.677790560000000,,0xFF,0x00
0.677793560000000,,0xFF,0x00
0.677796560000000,,0xFF,0x00
0.677799560000000,,0xFF,0x00
0.677802560000000,,0xFF,0x00
0.677805560000000,,0xFF,0x00
0.677808560000000,,0xFF,0x00
0.677811560000000,,0xFF,0x00
0.677814560000000,,0xFF,0x00
0.677817560000000,,0xFF,0x00
0.677820560000000,,0xFF,0x00
0.677823560000000,,0xFF,0x00
0.677826560000000,,0xFF,0x00
0.677829560000000,,0xFF,0x00
0.677832560000000,,0xFF,0x00
0.677835560000000,,0xFF,0x00
0.677838560000000,,0xFF,0x00
0.677841560000000,,0xFF,0x00
0.677844560000000,,0xFF,0x00
0.677847560000000,,0xFF,0x00
0.677850560000000,,0xFF,0x00
0.677853560000000,,0xFF,0x00
0.677856560000000,,0xFF,0x00
0.677859560000000,,0xFF,0x00
0.677862560000000,,0xFF,0x00
0.677865560000000,,0xFF,0x00
0.677868560000000,,0xFF,0x00
0.677871560000000,,0xFF,0x00
0.677874560000000,,0xFF,0x53
0.677877560000000,,0xFF,0x65
0.677880560000000,,0xFF,0x63
0.677883560000000,,0xFF,0x74
0.677886560000000,,0xFF,0x6F
0.677889560000000,,0xFF,0x72
0.677892560000000,,0xFF,0x30
0.677895560000000,,0xFF,0x78
0.677898560000000,,0xFF,0x30
0.677901560000000,,0xFF,0x30
0.677904560000000,,0xFF,0x30
0.677907560000000,,0xFF,0x30
0.677910560000000,,0xFF,0x30
0.677913560000000,,0xFF,0x30
0.677916560000000,,0xFF,0x30
0.677919560000000,,0xFF,0x33
0.677922560000000,,0xFF,0x00
0.677925560000000,,0xFF,0x00
0.677928580000000,,0xFF,0x00
0.677931560000000,,0xFF,0x00
0.677934580000000,,0xFF,0x00
0.677937580000000,,0xFF,0x00
0.677940580000000,,0xFF,0x00
0.677943580000000,,0xFF,0x00
0.677946580000000,,0xFF,0x00
0.677949580000000,,0xFF,0x00
0.677952580000000,,0xFF,0x00
0.677955580000000,,0xFF,0x00
0.677958580000000,,0xFF,0x00
0.677961580000000,,0xFF,0x45
0.677964580000000,,0xFF,0x6E
0.677967580000000,,0xFF,0x64	Последний байт сектора 0х00000003
0.677970580000000,,0xFF,0xAF	CRC16
0.677973280000000,,0xFF,0x26	CRC16
0.677975580000000,,0xFF,0xFF
0.677995280000000,,0x4C,0xFF	CMD_12 STOP_TRANSMISSION
0.677997580000000,,0x00,0xFE
0.677999860000000,,0x00,0x00
0.678002140000000,,0x00,0x00
0.678004440000000,,0x00,0x00
0.678006720000000,,0xFF,0x00
0.678016720000000,,0xFF,0x7F
0.678032720000000,,0xFF,0x00
0.678048720000000,,0xFF,0xFF
0.678064720000000,,0xFF,0xFF
0.678070300000000,,0xFF,0xFF
0.678075860000000,,0xFF,0xFF
0.678081440000000,,0xFF,0xFF
0.678087000000000,,0xFF,0xFF
0.678092580000000,,0xFF,0xFF
0.678098140000000,,0xFF,0xFF
0.678103720000000,,0xFF,0xFF
0.678109300000000,,0xFF,0xFF
0.678114860000000,,0xFF,0xFF
0.678120440000000,,0xFF,0xFF
0.678126000000000,,0xFF,0xFF
0.678131580000000,,0xFF,0xFF
0.678137160000000,,0xFF,0xFF
0.678142720000000,,0xFF,0xFF
0.678148300000000,,0xFF,0xFF
0.678153860000000,,0xFF,0xFF
0.678159440000000,,0xFF,0xFF
0.678165000000000,,0xFF,0xFF
0.678170580000000,,0xFF,0xFF
0.678176160000000,,0xFF,0xFF
0.678181720000000,,0xFF,0xFF
0.678187300000000,,0xFF,0xFF
0.678192860000000,,0xFF,0xFF
0.678198440000000,,0xFF,0xFF
0.678204020000000,,0xFF,0xFF
0.678209580000000,,0xFF,0xFF
0.678215160000000,,0xFF,0xFF
0.678220720000000,,0xFF,0xFF
0.678226300000000,,0xFF,0xFF
0.678231880000000,,0xFF,0xFF
0.678237440000000,,0xFF,0xFF
0.678255880000000,,0x00,0xFF
0.678263880000000,,0x4C,0xFF	CMD_12 STOP_TRANSMISSION (в холостую)
0.678266160000000,,0x00,0xFF
0.678267880000000,,0x00,0xFF
0.678269580000000,,0x00,0xFF
0.678271300000000,,0x00,0xFF
0.678273580000000,,0xFF,0xFF
0.678275300000000,,0xFF,0xFF
0.678317580000000,,0x59,0x00	CMD_25 WRITE_MULTIPLE_BLOCK
0.678319880000000,,0x00,0xFF
0.678322160000000,,0x00,0xFF
0.678324440000000,,0x00,0xFF
0.678326740000000,,0x02,0xFF
0.678329440000000,,0xFF,0xFF
0.678343740000000,,0xFF,0xFF
0.678349300000000,,0xFF,0x00
0.678354880000000,,0xFF,0xFF
0.678370880000000,,0xFF,0xFF
0.678376440000000,,0xFF,0xFF
0.678382020000000,,0xFF,0xFF
0.678387600000000,,0xFF,0xFF
0.678393160000000,,0xFF,0xFF
0.678398740000000,,0xFF,0xFF
0.678404300000000,,0xFF,0xFF
0.678409880000000,,0xFF,0xFF
0.678415440000000,,0xFF,0xFF
0.678421020000000,,0xFF,0xFF
0.678426600000000,,0xFF,0xFF
0.678432160000000,,0xFF,0xFF
0.678437740000000,,0xFF,0xFF
0.678443300000000,,0xFF,0xFF
0.678448880000000,,0xFF,0xFF
0.678454460000000,,0xFF,0xFF
0.678460020000000,,0xFF,0xFF
0.678465600000000,,0xFF,0xFF
0.678471160000000,,0xFF,0xFF
0.678476740000000,,0xFF,0xFF
0.678482320000000,,0xFF,0xFF
0.678487880000000,,0xFF,0xFF
0.678493460000000,,0xFF,0xFF
0.678499020000000,,0xFF,0xFF
0.678504600000000,,0xFF,0xFF
0.678510160000000,,0xFF,0xFF
0.678515740000000,,0xFF,0xFF
0.678521320000000,,0xFF,0xFF
0.678526880000000,,0xFF,0xFF
0.678532460000000,,0xFF,0xFF
0.678538020000000,,0xFF,0xFF
0.678543600000000,,0xFF,0xFF
0.678556460000000,,0xFC,0xFF	стартовый маркер
0.678559740000000,,0x44,0xFF	Первый байт сектора 0х00000002
0.678562740000000,,0x69,0xFF
0.678565740000000,,0x6D,0xFF
0.678568740000000,,0x6B,0xFF
0.678571740000000,,0x61,0xFF
0.678574740000000,,0x4D,0xFF
0.678577740000000,,0x00,0xFF
0.678580740000000,,0x53,0xFF
0.678583740000000,,0x44,0xFF
0.678586740000000,,0x2D,0xFF
0.678589740000000,,0x54,0xFF
0.678592740000000,,0x65,0xFF
0.678595740000000,,0x73,0xFF
0.678598740000000,,0x74,0xFF
0.678601740000000,,0x00,0xFF
0.678604740000000,,0x00,0xFF
0.678607740000000,,0x53,0xFF
0.678610740000000,,0x65,0xFF
0.678613740000000,,0x63,0xFF
0.678616740000000,,0x74,0xFF
0.678619740000000,,0x6F,0xFF
0.678622740000000,,0x72,0xFF
0.678625740000000,,0x30,0xFF
0.678628740000000,,0x78,0xFF
0.678631740000000,,0x30,0xFF
0.678634740000000,,0x30,0xFF
0.678637740000000,,0x30,0xFF
0.678640740000000,,0x30,0xFF
0.678643740000000,,0x30,0xFF
0.678646740000000,,0x30,0xFF
0.678649740000000,,0x30,0xFF
0.678652740000000,,0x32,0xFF
0.678655740000000,,0x00,0xFF
0.678658740000000,,0x00,0xFF
0.678661740000000,,0x00,0xFF
0.678664740000000,,0x00,0xFF
0.678667740000000,,0x00,0xFF
0.678670740000000,,0x00,0xFF
0.678673740000000,,0x00,0xFF
0.678676740000000,,0x00,0xFF
0.678679740000000,,0x00,0xFF
0.678682740000000,,0x00,0xFF
0.678685740000000,,0x00,0xFF
0.678688740000000,,0x00,0xFF
0.678691740000000,,0x00,0xFF
0.678694740000000,,0x00,0xFF
0.678697740000000,,0x00,0xFF
0.678700740000000,,0x00,0xFF
0.678703740000000,,0x00,0xFF
0.678706740000000,,0x00,0xFF
0.678709740000000,,0x00,0xFF
0.678712740000000,,0x00,0xFF
0.678715740000000,,0x00,0xFF
0.678718760000000,,0x00,0xFF
0.678721760000000,,0x00,0xFF
0.678724760000000,,0x00,0xFF
0.678727760000000,,0x00,0xFF
0.678730760000000,,0x00,0xFF
0.678733760000000,,0x00,0xFF
0.678736760000000,,0x00,0xFF
0.678739760000000,,0x00,0xFF
0.678742760000000,,0x00,0xFF
0.678745760000000,,0x00,0xFF
0.678748760000000,,0x00,0xFF
0.678751760000000,,0x00,0xFF
0.678754760000000,,0x00,0xFF
0.678757760000000,,0x00,0xFF
0.678760760000000,,0x00,0xFF
0.678763760000000,,0x00,0xFF
0.678766760000000,,0x00,0xFF
0.678769760000000,,0x00,0xFF
0.678772760000000,,0x00,0xFF
0.678775760000000,,0x00,0xFF
0.678778760000000,,0x00,0xFF
0.678781760000000,,0x00,0xFF
0.678784760000000,,0x00,0xFF
0.678787760000000,,0x00,0xFF
0.678790760000000,,0x00,0xFF
0.678793760000000,,0x00,0xFF
0.678796760000000,,0x00,0xFF
0.678799760000000,,0x00,0xFF
0.678802760000000,,0x00,0xFF
0.678805760000000,,0x00,0xFF
0.678808760000000,,0x00,0xFF
0.678811760000000,,0x00,0xFF
0.678814760000000,,0x00,0xFF
0.678817760000000,,0x00,0xFF
0.678820760000000,,0x00,0xFF
0.678823760000000,,0x00,0xFF
0.678826760000000,,0x00,0xFF
0.678829760000000,,0x00,0xFF
0.678832760000000,,0x00,0xFF
0.678835760000000,,0x00,0xFF
0.678838760000000,,0x00,0xFF
0.678841760000000,,0x00,0xFF
0.678844760000000,,0x00,0xFF
0.678847760000000,,0x00,0xFF
0.678850760000000,,0x00,0xFF
0.678853760000000,,0x00,0xFF
0.678856760000000,,0x00,0xFF
0.678859760000000,,0x00,0xFF
0.678862760000000,,0x00,0xFF
0.678865760000000,,0x00,0xFF
0.678868760000000,,0x00,0xFF
0.678871760000000,,0x00,0xFF
0.678874760000000,,0x00,0xFF
0.678877760000000,,0x00,0xFF
0.678880760000000,,0x00,0xFF
0.678883760000000,,0x00,0xFF
0.678886760000000,,0x00,0xFF
0.678889760000000,,0x00,0xFF
0.678892760000000,,0x00,0xFF
0.678895760000000,,0x00,0xFF
0.678898760000000,,0x00,0xFF
0.678901760000000,,0x00,0xFF
0.678904760000000,,0x00,0xFF
0.678907760000000,,0x00,0xFF
0.678910760000000,,0x00,0xFF
0.678913760000000,,0x00,0xFF
0.678916760000000,,0x00,0xFF
0.678919760000000,,0x00,0xFF
0.678922760000000,,0x00,0xFF
0.678925760000000,,0x00,0xFF
0.678928760000000,,0x00,0xFF
0.678931760000000,,0x00,0xFF
0.678934760000000,,0x00,0xFF
0.678937760000000,,0x00,0xFF
0.678940760000000,,0x00,0xFF
0.678944040000000,,0x00,0xFF
0.678947040000000,,0x00,0xFF
0.678950040000000,,0x00,0xFF
0.678953040000000,,0x00,0xFF
0.678956040000000,,0x00,0xFF
0.678959040000000,,0x00,0xFF
0.678962040000000,,0x00,0xFF
0.678965040000000,,0x00,0xFF
0.678968040000000,,0x00,0xFF
0.678971040000000,,0x00,0xFF
0.678974040000000,,0x00,0xFF
0.678977040000000,,0x00,0xFF
0.678980040000000,,0x00,0xFF
0.678983040000000,,0x00,0xFF
0.678986040000000,,0x00,0xFF
0.678989040000000,,0x00,0xFF
0.678992040000000,,0x00,0xFF
0.678995040000000,,0x00,0xFF
0.678998040000000,,0x00,0xFF
0.679001040000000,,0x00,0xFF
0.679004040000000,,0x00,0xFF
0.679007040000000,,0x00,0xFF
0.679010040000000,,0x00,0xFF
0.679013040000000,,0x00,0xFF
0.679016040000000,,0x00,0xFF
0.679019040000000,,0x00,0xFF
0.679022060000000,,0x00,0xFF
0.679025060000000,,0x00,0xFF
0.679028060000000,,0x00,0xFF
0.679031060000000,,0x00,0xFF
0.679034060000000,,0x00,0xFF
0.679037060000000,,0x00,0xFF
0.679040060000000,,0x00,0xFF
0.679043060000000,,0x00,0xFF
0.679046060000000,,0x00,0xFF
0.679049060000000,,0x00,0xFF
0.679052060000000,,0x00,0xFF
0.679055060000000,,0x00,0xFF
0.679058060000000,,0x00,0xFF
0.679061060000000,,0x00,0xFF
0.679064060000000,,0x00,0xFF
0.679067060000000,,0x00,0xFF
0.679070060000000,,0x00,0xFF
0.679073060000000,,0x00,0xFF
0.679076060000000,,0x00,0xFF
0.679079060000000,,0x00,0xFF
0.679082060000000,,0x00,0xFF
0.679085060000000,,0x00,0xFF
0.679088060000000,,0x00,0xFF
0.679091060000000,,0x00,0xFF
0.679094060000000,,0x00,0xFF
0.679097060000000,,0x00,0xFF
0.679100060000000,,0x00,0xFF
0.679103060000000,,0x00,0xFF
0.679106060000000,,0x00,0xFF
0.679109060000000,,0x00,0xFF
0.679112060000000,,0x00,0xFF
0.679115060000000,,0x00,0xFF
0.679118060000000,,0x00,0xFF
0.679121060000000,,0x00,0xFF
0.679124060000000,,0x00,0xFF
0.679127060000000,,0x00,0xFF
0.679130060000000,,0x00,0xFF
0.679133060000000,,0x00,0xFF
0.679136060000000,,0x00,0xFF
0.679139060000000,,0x00,0xFF
0.679142060000000,,0x00,0xFF
0.679145060000000,,0x00,0xFF
0.679148060000000,,0x00,0xFF
0.679151060000000,,0x00,0xFF
0.679154060000000,,0x00,0xFF
0.679157060000000,,0x00,0xFF
0.679160060000000,,0x00,0xFF
0.679163060000000,,0x00,0xFF
0.679166060000000,,0x00,0xFF
0.679169060000000,,0x00,0xFF
0.679172060000000,,0x00,0xFF
0.679175060000000,,0x00,0xFF
0.679178060000000,,0x00,0xFF
0.679181060000000,,0x00,0xFF
0.679184060000000,,0x00,0xFF
0.679187060000000,,0x00,0xFF
0.679190060000000,,0x00,0xFF
0.679193060000000,,0x00,0xFF
0.679196060000000,,0x00,0xFF
0.679199060000000,,0x00,0xFF
0.679202060000000,,0x00,0xFF
0.679205060000000,,0x00,0xFF
0.679208060000000,,0x00,0xFF
0.679211060000000,,0x00,0xFF
0.679214060000000,,0x00,0xFF
0.679217060000000,,0x00,0xFF
0.679220060000000,,0x00,0xFF
0.679223060000000,,0x00,0xFF
0.679226060000000,,0x00,0xFF
0.679229060000000,,0x00,0xFF
0.679232060000000,,0x00,0xFF
0.679235060000000,,0x00,0xFF
0.679238060000000,,0x00,0xFF
0.679241060000000,,0x00,0xFF
0.679244060000000,,0x00,0xFF
0.679247060000000,,0x00,0xFF
0.679250060000000,,0x00,0xFF
0.679253060000000,,0x00,0xFF
0.679256060000000,,0x00,0xFF
0.679259060000000,,0x00,0xFF
0.679262060000000,,0x00,0xFF
0.679265060000000,,0x00,0xFF
0.679268060000000,,0x00,0xFF
0.679271060000000,,0x00,0xFF
0.679274060000000,,0x00,0xFF
0.679277060000000,,0x00,0xFF
0.679280060000000,,0x00,0xFF
0.679283060000000,,0x00,0xFF
0.679286060000000,,0x00,0xFF
0.679289060000000,,0x00,0xFF
0.679292060000000,,0x00,0xFF
0.679295060000000,,0x00,0xFF
0.679298060000000,,0x00,0xFF
0.679301060000000,,0x00,0xFF
0.679304060000000,,0x00,0xFF
0.679307060000000,,0x00,0xFF
0.679310060000000,,0x00,0xFF
0.679313060000000,,0x00,0xFF
0.679316060000000,,0x00,0xFF
0.679319060000000,,0x00,0xFF
0.679322060000000,,0x00,0xFF
0.679325060000000,,0x00,0xFF
0.679328360000000,,0x00,0xFF
0.679331360000000,,0x00,0xFF
0.679334360000000,,0x00,0xFF
0.679337360000000,,0x00,0xFF
0.679340360000000,,0x00,0xFF
0.679343360000000,,0x00,0xFF
0.679346360000000,,0x00,0xFF
0.679349360000000,,0x00,0xFF
0.679352360000000,,0x00,0xFF
0.679355360000000,,0x00,0xFF
0.679358360000000,,0x00,0xFF
0.679361360000000,,0x00,0xFF
0.679364360000000,,0x00,0xFF
0.679367360000000,,0x00,0xFF
0.679370360000000,,0x00,0xFF
0.679373360000000,,0x00,0xFF
0.679376360000000,,0x00,0xFF
0.679379360000000,,0x00,0xFF
0.679382360000000,,0x00,0xFF
0.679385360000000,,0x00,0xFF
0.679388360000000,,0x00,0xFF
0.679391360000000,,0x00,0xFF
0.679394360000000,,0x00,0xFF
0.679397360000000,,0x00,0xFF
0.679400360000000,,0x00,0xFF
0.679403360000000,,0x00,0xFF
0.679406360000000,,0x00,0xFF
0.679409360000000,,0x00,0xFF
0.679412360000000,,0x00,0xFF
0.679415360000000,,0x00,0xFF
0.679418360000000,,0x00,0xFF
0.679421360000000,,0x00,0xFF
0.679424360000000,,0x00,0xFF
0.679427360000000,,0x00,0xFF
0.679430360000000,,0x00,0xFF
0.679433360000000,,0x00,0xFF
0.679436360000000,,0x00,0xFF
0.679439360000000,,0x00,0xFF
0.679442360000000,,0x00,0xFF
0.679445360000000,,0x00,0xFF
0.679448360000000,,0x00,0xFF
0.679451360000000,,0x00,0xFF
0.679454360000000,,0x00,0xFF
0.679457360000000,,0x00,0xFF
0.679460360000000,,0x00,0xFF
0.679463360000000,,0x00,0xFF
0.679466360000000,,0x00,0xFF
0.679469360000000,,0x00,0xFF
0.679472360000000,,0x00,0xFF
0.679475360000000,,0x00,0xFF
0.679478360000000,,0x00,0xFF
0.679481360000000,,0x00,0xFF
0.679484360000000,,0x00,0xFF
0.679487360000000,,0x00,0xFF
0.679490360000000,,0x00,0xFF
0.679493360000000,,0x00,0xFF
0.679496360000000,,0x00,0xFF
0.679499360000000,,0x00,0xFF
0.679502360000000,,0x00,0xFF
0.679505360000000,,0x00,0xFF
0.679508360000000,,0x00,0xFF
0.679511360000000,,0x00,0xFF
0.679514360000000,,0x00,0xFF
0.679517360000000,,0x00,0xFF
0.679520360000000,,0x00,0xFF
0.679523360000000,,0x00,0xFF
0.679526360000000,,0x00,0xFF
0.679529360000000,,0x00,0xFF
0.679532360000000,,0x00,0xFF
0.679535360000000,,0x00,0xFF
0.679538360000000,,0x00,0xFF
0.679541360000000,,0x00,0xFF
0.679544360000000,,0x00,0xFF
0.679547360000000,,0x00,0xFF
0.679550360000000,,0x00,0xFF
0.679553360000000,,0x00,0xFF
0.679556360000000,,0x00,0xFF
0.679559360000000,,0x00,0xFF
0.679562360000000,,0x00,0xFF
0.679565360000000,,0x00,0xFF
0.679568360000000,,0x00,0xFF
0.679571360000000,,0x00,0xFF
0.679574360000000,,0x00,0xFF
0.679577360000000,,0x00,0xFF
0.679580360000000,,0x00,0xFF
0.679583360000000,,0x00,0xFF
0.679586360000000,,0x00,0xFF
0.679589360000000,,0x00,0xFF
0.679592360000000,,0x00,0xFF
0.679595360000000,,0x00,0xFF
0.679598360000000,,0x00,0xFF
0.679601360000000,,0x00,0xFF
0.679604360000000,,0x00,0xFF
0.679607360000000,,0x00,0xFF
0.679610360000000,,0x00,0xFF
0.679613360000000,,0x00,0xFF
0.679616360000000,,0x00,0xFF
0.679619360000000,,0x00,0xFF
0.679622360000000,,0x00,0xFF
0.679625360000000,,0x00,0xFF
0.679628360000000,,0x00,0xFF
0.679631360000000,,0x00,0xFF
0.679634360000000,,0x00,0xFF
0.679637360000000,,0x00,0xFF
0.679640360000000,,0x00,0xFF
0.679643360000000,,0x00,0xFF
0.679646360000000,,0x00,0xFF
0.679649360000000,,0x00,0xFF
0.679652360000000,,0x00,0xFF
0.679655360000000,,0x00,0xFF
0.679658360000000,,0x00,0xFF
0.679661360000000,,0x00,0xFF
0.679664360000000,,0x00,0xFF
0.679667360000000,,0x00,0xFF
0.679670360000000,,0x00,0xFF
0.679673360000000,,0x00,0xFF
0.679676360000000,,0x00,0xFF
0.679679360000000,,0x00,0xFF
0.679682360000000,,0x00,0xFF
0.679685360000000,,0x00,0xFF
0.679688360000000,,0x00,0xFF
0.679691360000000,,0x00,0xFF
0.679694360000000,,0x00,0xFF
0.679697360000000,,0x00,0xFF
0.679700360000000,,0x00,0xFF
0.679703360000000,,0x00,0xFF
0.679706360000000,,0x00,0xFF
0.679709360000000,,0x00,0xFF
0.679712660000000,,0x00,0xFF
0.679715660000000,,0x00,0xFF
0.679718660000000,,0x00,0xFF
0.679721660000000,,0x00,0xFF
0.679724660000000,,0x00,0xFF
0.679727660000000,,0x00,0xFF
0.679730660000000,,0x00,0xFF
0.679733660000000,,0x00,0xFF
0.679736660000000,,0x00,0xFF
0.679739660000000,,0x00,0xFF
0.679742660000000,,0x00,0xFF
0.679745660000000,,0x00,0xFF
0.679748660000000,,0x00,0xFF
0.679751660000000,,0x00,0xFF
0.679754660000000,,0x00,0xFF
0.679757660000000,,0x00,0xFF
0.679760660000000,,0x00,0xFF
0.679763660000000,,0x00,0xFF
0.679766660000000,,0x00,0xFF
0.679769660000000,,0x00,0xFF
0.679772660000000,,0x00,0xFF
0.679775660000000,,0x00,0xFF
0.679778660000000,,0x00,0xFF
0.679781660000000,,0x00,0xFF
0.679784660000000,,0x00,0xFF
0.679787660000000,,0x00,0xFF
0.679790660000000,,0x00,0xFF
0.679793660000000,,0x00,0xFF
0.679796660000000,,0x00,0xFF
0.679799660000000,,0x00,0xFF
0.679802660000000,,0x00,0xFF
0.679805660000000,,0x00,0xFF
0.679808660000000,,0x00,0xFF
0.679811660000000,,0x00,0xFF
0.679814660000000,,0x00,0xFF
0.679817660000000,,0x00,0xFF
0.679820660000000,,0x00,0xFF
0.679823660000000,,0x00,0xFF
0.679826660000000,,0x00,0xFF
0.679829660000000,,0x00,0xFF
0.679832660000000,,0x00,0xFF
0.679835660000000,,0x00,0xFF
0.679838660000000,,0x00,0xFF
0.679841660000000,,0x00,0xFF
0.679844660000000,,0x00,0xFF
0.679847660000000,,0x00,0xFF
0.679850660000000,,0x00,0xFF
0.679853660000000,,0x00,0xFF
0.679856660000000,,0x00,0xFF
0.679859660000000,,0x00,0xFF
0.679862660000000,,0x00,0xFF
0.679865660000000,,0x00,0xFF
0.679868660000000,,0x00,0xFF
0.679871660000000,,0x00,0xFF
0.679874660000000,,0x00,0xFF
0.679877660000000,,0x00,0xFF
0.679880660000000,,0x00,0xFF
0.679883660000000,,0x00,0xFF
0.679886660000000,,0x00,0xFF
0.679889660000000,,0x00,0xFF
0.679892660000000,,0x00,0xFF
0.679895660000000,,0x00,0xFF
0.679898660000000,,0x00,0xFF
0.679901660000000,,0x00,0xFF
0.679904660000000,,0x00,0xFF
0.679907660000000,,0x00,0xFF
0.679910660000000,,0x00,0xFF
0.679913660000000,,0x00,0xFF
0.679916660000000,,0x00,0xFF
0.679919660000000,,0x00,0xFF
0.679922660000000,,0x00,0xFF
0.679925660000000,,0x00,0xFF
0.679928660000000,,0x00,0xFF
0.679931660000000,,0x00,0xFF
0.679934660000000,,0x00,0xFF
0.679937660000000,,0x00,0xFF
0.679940660000000,,0x00,0xFF
0.679943660000000,,0x00,0xFF
0.679946660000000,,0x00,0xFF
0.679949660000000,,0x00,0xFF
0.679952660000000,,0x00,0xFF
0.679955660000000,,0x00,0xFF
0.679958660000000,,0x00,0xFF
0.679961660000000,,0x00,0xFF
0.679964660000000,,0x00,0xFF
0.679967660000000,,0x00,0xFF
0.679970660000000,,0x00,0xFF
0.679973660000000,,0x00,0xFF
0.679976660000000,,0x00,0xFF
0.679979660000000,,0x00,0xFF
0.679982660000000,,0x00,0xFF
0.679985660000000,,0x00,0xFF
0.679988660000000,,0x00,0xFF
0.679991660000000,,0x00,0xFF
0.679994660000000,,0x00,0xFF
0.679997660000000,,0x00,0xFF
0.680000660000000,,0x53,0xFF
0.680003660000000,,0x65,0xFF
0.680006660000000,,0x63,0xFF
0.680009660000000,,0x74,0xFF
0.680012660000000,,0x6F,0xFF
0.680015660000000,,0x72,0xFF
0.680018660000000,,0x30,0xFF
0.680021660000000,,0x78,0xFF
0.680024660000000,,0x30,0xFF
0.680027660000000,,0x30,0xFF
0.680030660000000,,0x30,0xFF
0.680033660000000,,0x30,0xFF
0.680036660000000,,0x30,0xFF
0.680039660000000,,0x30,0xFF
0.680042660000000,,0x30,0xFF
0.680045660000000,,0x32,0xFF
0.680048660000000,,0x00,0xFF
0.680051660000000,,0x00,0xFF
0.680054660000000,,0x00,0xFF
0.680057660000000,,0x00,0xFF
0.680060660000000,,0x00,0xFF
0.680063680000000,,0x00,0xFF
0.680066680000000,,0x00,0xFF
0.680069680000000,,0x00,0xFF
0.680072680000000,,0x00,0xFF
0.680075680000000,,0x00,0xFF
0.680078680000000,,0x00,0xFF
0.680081680000000,,0x00,0xFF
0.680084680000000,,0x00,0xFF
0.680087680000000,,0x45,0xFF
0.680090680000000,,0x6E,0xFF
0.680093680000000,,0x64,0xFF	Последний байт сектора 0х00000002
0.680096380000000,,0xFF,0xFF	пустое CRC16
0.680098680000000,,0xFF,0xFF	пустое CRC16
0.680107240000000,,0xFF,0xE5
0.680112820000000,,0xFF,0x00
0.680128820000000,,0xFF,0x00
0.680144820000000,,0xFF,0x00
0.680160820000000,,0xFF,0x00
0.680176820000000,,0xFF,0x00
0.680192820000000,,0xFF,0x00
0.680208820000000,,0xFF,0x00
0.680224820000000,,0xFF,0x00
0.680240820000000,,0xFF,0x00
0.680256820000000,,0xFF,0x00
0.680272820000000,,0xFF,0x00
0.680288820000000,,0xFF,0xFF
0.680304820000000,,0xFF,0xFF
0.680310400000000,,0xFF,0xFF
0.680315960000000,,0xFF,0xFF
0.680321540000000,,0xFF,0xFF
0.680327120000000,,0xFF,0xFF
0.680332680000000,,0xFF,0xFF
0.680338260000000,,0xFF,0xFF
0.680343820000000,,0xFF,0xFF
0.680349400000000,,0xFF,0xFF
0.680354960000000,,0xFF,0xFF
0.680360540000000,,0xFF,0xFF
0.680366120000000,,0xFF,0xFF
0.680371680000000,,0xFF,0xFF
0.680377260000000,,0xFF,0xFF
0.680382820000000,,0xFF,0xFF
0.680388400000000,,0xFF,0xFF
0.680393980000000,,0xFF,0xFF
0.680399540000000,,0xFF,0xFF
0.680405120000000,,0xFF,0xFF
0.680410680000000,,0xFF,0xFF
0.680416260000000,,0xFF,0xFF
0.680421840000000,,0xFF,0xFF
0.680427400000000,,0xFF,0xFF
0.680432980000000,,0xFF,0xFF
0.680438540000000,,0xFF,0xFF
0.680444120000000,,0xFF,0xFF
0.680449680000000,,0xFF,0xFF
0.680455260000000,,0xFF,0xFF
0.680460840000000,,0xFF,0xFF
0.680466400000000,,0xFF,0xFF
0.680471980000000,,0xFF,0xFF
0.680477540000000,,0xFF,0xFF
0.680492700000000,,0xFC,0xFF	стартовый маркер
0.680495980000000,,0x44,0xFF	Первый байт сектора 0х00000003
0.680498980000000,,0x69,0xFF
0.680501980000000,,0x6D,0xFF
0.680504980000000,,0x6B,0xFF
0.680507980000000,,0x61,0xFF
0.680510980000000,,0x4D,0xFF
0.680513980000000,,0x20,0xFF
0.680516980000000,,0x53,0xFF
0.680519980000000,,0x44,0xFF
0.680522980000000,,0x2D,0xFF
0.680525980000000,,0x54,0xFF
0.680528980000000,,0x65,0xFF
0.680531980000000,,0x73,0xFF
0.680534980000000,,0x74,0xFF
0.680537980000000,,0x00,0xFF
0.680540980000000,,0x00,0xFF
0.680543980000000,,0x53,0xFF
0.680546980000000,,0x65,0xFF
0.680549980000000,,0x63,0xFF
0.680552980000000,,0x74,0xFF
0.680555980000000,,0x6F,0xFF
0.680558980000000,,0x72,0xFF
0.680561980000000,,0x30,0xFF
0.680564980000000,,0x78,0xFF
0.680567980000000,,0x30,0xFF
0.680570980000000,,0x30,0xFF
0.680573980000000,,0x30,0xFF
0.680576980000000,,0x30,0xFF
0.680579980000000,,0x30,0xFF
0.680582980000000,,0x30,0xFF
0.680585980000000,,0x30,0xFF
0.680588980000000,,0x33,0xFF
0.680591980000000,,0x00,0xFF
0.680594980000000,,0x00,0xFF
0.680597980000000,,0x00,0xFF
0.680600980000000,,0x00,0xFF
0.680603980000000,,0x00,0xFF
0.680606980000000,,0x00,0xFF
0.680609980000000,,0x00,0xFF
0.680612980000000,,0x00,0xFF
0.680615980000000,,0x00,0xFF
0.680618980000000,,0x00,0xFF
0.680621980000000,,0x00,0xFF
0.680624980000000,,0x00,0xFF
0.680627980000000,,0x00,0xFF
0.680630980000000,,0x00,0xFF
0.680633980000000,,0x00,0xFF
0.680636980000000,,0x00,0xFF
0.680639980000000,,0x00,0xFF
0.680642980000000,,0x00,0xFF
0.680645980000000,,0x00,0xFF
0.680648980000000,,0x00,0xFF
0.680651980000000,,0x00,0xFF
0.680654980000000,,0x00,0xFF
0.680657980000000,,0x00,0xFF
0.680660980000000,,0x00,0xFF
0.680663980000000,,0x00,0xFF
0.680666980000000,,0x00,0xFF
0.680669980000000,,0x00,0xFF
0.680672980000000,,0x00,0xFF
0.680675980000000,,0x00,0xFF
0.680678980000000,,0x00,0xFF
0.680681980000000,,0x00,0xFF
0.680684980000000,,0x00,0xFF
0.680687980000000,,0x00,0xFF
0.680690980000000,,0x00,0xFF
0.680693980000000,,0x00,0xFF
0.680696980000000,,0x00,0xFF
0.680699980000000,,0x00,0xFF
0.680702980000000,,0x00,0xFF
0.680705980000000,,0x00,0xFF
0.680708980000000,,0x00,0xFF
0.680711980000000,,0x00,0xFF
0.680714980000000,,0x00,0xFF
0.680717980000000,,0x00,0xFF
0.680720980000000,,0x00,0xFF
0.680723980000000,,0x00,0xFF
0.680726980000000,,0x00,0xFF
0.680729980000000,,0x00,0xFF
0.680732980000000,,0x00,0xFF
0.680735980000000,,0x00,0xFF
0.680738980000000,,0x00,0xFF
0.680741980000000,,0x00,0xFF
0.680744980000000,,0x00,0xFF
0.680747980000000,,0x00,0xFF
0.680750980000000,,0x00,0xFF
0.680753980000000,,0x00,0xFF
0.680756980000000,,0x00,0xFF
0.680759980000000,,0x00,0xFF
0.680762980000000,,0x00,0xFF
0.680765980000000,,0x00,0xFF
0.680768980000000,,0x00,0xFF
0.680771980000000,,0x00,0xFF
0.680774980000000,,0x00,0xFF
0.680777980000000,,0x00,0xFF
0.680780980000000,,0x00,0xFF
0.680783980000000,,0x00,0xFF
0.680786980000000,,0x00,0xFF
0.680790000000000,,0x00,0xFF
0.680793000000000,,0x00,0xFF
0.680796000000000,,0x00,0xFF
0.680799000000000,,0x00,0xFF
0.680802000000000,,0x00,0xFF
0.680805000000000,,0x00,0xFF
0.680808000000000,,0x00,0xFF
0.680811000000000,,0x00,0xFF
0.680814000000000,,0x00,0xFF
0.680817000000000,,0x00,0xFF
0.680820000000000,,0x00,0xFF
0.680823000000000,,0x00,0xFF
0.680826000000000,,0x00,0xFF
0.680829000000000,,0x00,0xFF
0.680832000000000,,0x00,0xFF
0.680835000000000,,0x00,0xFF
0.680838000000000,,0x00,0xFF
0.680841000000000,,0x00,0xFF
0.680844000000000,,0x00,0xFF
0.680847000000000,,0x00,0xFF
0.680850000000000,,0x00,0xFF
0.680853000000000,,0x00,0xFF
0.680856000000000,,0x00,0xFF
0.680859000000000,,0x00,0xFF
0.680862000000000,,0x00,0xFF
0.680865000000000,,0x00,0xFF
0.680868000000000,,0x00,0xFF
0.680871000000000,,0x00,0xFF
0.680874000000000,,0x00,0xFF
0.680877000000000,,0x00,0xFF
0.680880280000000,,0x00,0xFF
0.680883280000000,,0x00,0xFF
0.680886280000000,,0x00,0xFF
0.680889280000000,,0x00,0xFF
0.680892280000000,,0x00,0xFF
0.680895280000000,,0x00,0xFF
0.680898280000000,,0x00,0xFF
0.680901280000000,,0x00,0xFF
0.680904280000000,,0x00,0xFF
0.680907280000000,,0x00,0xFF
0.680910280000000,,0x00,0xFF
0.680913280000000,,0x00,0xFF
0.680916280000000,,0x00,0xFF
0.680919280000000,,0x00,0xFF
0.680922280000000,,0x00,0xFF
0.680925280000000,,0x00,0xFF
0.680928280000000,,0x00,0xFF
0.680931280000000,,0x00,0xFF
0.680934280000000,,0x00,0xFF
0.680937280000000,,0x00,0xFF
0.680940280000000,,0x00,0xFF
0.680943280000000,,0x00,0xFF
0.680946280000000,,0x00,0xFF
0.680949280000000,,0x00,0xFF
0.680952280000000,,0x00,0xFF
0.680955280000000,,0x00,0xFF
0.680958280000000,,0x00,0xFF
0.680961280000000,,0x00,0xFF
0.680964280000000,,0x00,0xFF
0.680967280000000,,0x00,0xFF
0.680970280000000,,0x00,0xFF
0.680973280000000,,0x00,0xFF
0.680976280000000,,0x00,0xFF
0.680979280000000,,0x00,0xFF
0.680982280000000,,0x00,0xFF
0.680985280000000,,0x00,0xFF
0.680988280000000,,0x00,0xFF
0.680991280000000,,0x00,0xFF
0.680994280000000,,0x00,0xFF
0.680997280000000,,0x00,0xFF
0.681000280000000,,0x00,0xFF
0.681003280000000,,0x00,0xFF
0.681006280000000,,0x00,0xFF
0.681009280000000,,0x00,0xFF
0.681012280000000,,0x00,0xFF
0.681015280000000,,0x00,0xFF
0.681018280000000,,0x00,0xFF
0.681021280000000,,0x00,0xFF
0.681024280000000,,0x00,0xFF
0.681027280000000,,0x00,0xFF
0.681030280000000,,0x00,0xFF
0.681033280000000,,0x00,0xFF
0.681036280000000,,0x00,0xFF
0.681039280000000,,0x00,0xFF
0.681042280000000,,0x00,0xFF
0.681045280000000,,0x00,0xFF
0.681048280000000,,0x00,0xFF
0.681051280000000,,0x00,0xFF
0.681054280000000,,0x00,0xFF
0.681057280000000,,0x00,0xFF
0.681060280000000,,0x00,0xFF
0.681063280000000,,0x00,0xFF
0.681066280000000,,0x00,0xFF
0.681069280000000,,0x00,0xFF
0.681072280000000,,0x00,0xFF
0.681075280000000,,0x00,0xFF
0.681078280000000,,0x00,0xFF
0.681081280000000,,0x00,0xFF
0.681084280000000,,0x00,0xFF
0.681087280000000,,0x00,0xFF
0.681090280000000,,0x00,0xFF
0.681093280000000,,0x00,0xFF
0.681096280000000,,0x00,0xFF
0.681099300000000,,0x00,0xFF
0.681102300000000,,0x00,0xFF
0.681105300000000,,0x00,0xFF
0.681108300000000,,0x00,0xFF
0.681111300000000,,0x00,0xFF
0.681114300000000,,0x00,0xFF
0.681117300000000,,0x00,0xFF
0.681120300000000,,0x00,0xFF
0.681123300000000,,0x00,0xFF
0.681126300000000,,0x00,0xFF
0.681129300000000,,0x00,0xFF
0.681132300000000,,0x00,0xFF
0.681135300000000,,0x00,0xFF
0.681138300000000,,0x00,0xFF
0.681141300000000,,0x00,0xFF
0.681144300000000,,0x00,0xFF
0.681147300000000,,0x00,0xFF
0.681150300000000,,0x00,0xFF
0.681153300000000,,0x00,0xFF
0.681156300000000,,0x00,0xFF
0.681159300000000,,0x00,0xFF
0.681162300000000,,0x00,0xFF
0.681165300000000,,0x00,0xFF
0.681168300000000,,0x00,0xFF
0.681171300000000,,0x00,0xFF
0.681174300000000,,0x00,0xFF
0.681177300000000,,0x00,0xFF
0.681180300000000,,0x00,0xFF
0.681183300000000,,0x00,0xFF
0.681186300000000,,0x00,0xFF
0.681189300000000,,0x00,0xFF
0.681192300000000,,0x00,0xFF
0.681195300000000,,0x00,0xFF
0.681198300000000,,0x00,0xFF
0.681201300000000,,0x00,0xFF
0.681204300000000,,0x00,0xFF
0.681207300000000,,0x00,0xFF
0.681210300000000,,0x00,0xFF
0.681213300000000,,0x00,0xFF
0.681216300000000,,0x00,0xFF
0.681219300000000,,0x00,0xFF
0.681222300000000,,0x00,0xFF
0.681225300000000,,0x00,0xFF
0.681228300000000,,0x00,0xFF
0.681231300000000,,0x00,0xFF
0.681234300000000,,0x00,0xFF
0.681237300000000,,0x00,0xFF
0.681240300000000,,0x00,0xFF
0.681243300000000,,0x00,0xFF
0.681246300000000,,0x00,0xFF
0.681249300000000,,0x00,0xFF
0.681252300000000,,0x00,0xFF
0.681255300000000,,0x00,0xFF
0.681258300000000,,0x00,0xFF
0.681261300000000,,0x00,0xFF
0.681264580000000,,0x00,0xFF
0.681267580000000,,0x00,0xFF
0.681270580000000,,0x00,0xFF
0.681273580000000,,0x00,0xFF
0.681276580000000,,0x00,0xFF
0.681279580000000,,0x00,0xFF
0.681282580000000,,0x00,0xFF
0.681285580000000,,0x00,0xFF
0.681288580000000,,0x00,0xFF
0.681291580000000,,0x00,0xFF
0.681294580000000,,0x00,0xFF
0.681297580000000,,0x00,0xFF
0.681300580000000,,0x00,0xFF
0.681303580000000,,0x00,0xFF
0.681306580000000,,0x00,0xFF
0.681309580000000,,0x00,0xFF
0.681312580000000,,0x00,0xFF
0.681315580000000,,0x00,0xFF
0.681318580000000,,0x00,0xFF
0.681321580000000,,0x00,0xFF
0.681324580000000,,0x00,0xFF
0.681327580000000,,0x00,0xFF
0.681330580000000,,0x00,0xFF
0.681333580000000,,0x00,0xFF
0.681336580000000,,0x00,0xFF
0.681339580000000,,0x00,0xFF
0.681342580000000,,0x00,0xFF
0.681345580000000,,0x00,0xFF
0.681348580000000,,0x00,0xFF
0.681351580000000,,0x00,0xFF
0.681354580000000,,0x00,0xFF
0.681357580000000,,0x00,0xFF
0.681360580000000,,0x00,0xFF
0.681363580000000,,0x00,0xFF
0.681366580000000,,0x00,0xFF
0.681369580000000,,0x00,0xFF
0.681372580000000,,0x00,0xFF
0.681375580000000,,0x00,0xFF
0.681378580000000,,0x00,0xFF
0.681381580000000,,0x00,0xFF
0.681384580000000,,0x00,0xFF
0.681387580000000,,0x00,0xFF
0.681390580000000,,0x00,0xFF
0.681393580000000,,0x00,0xFF
0.681396580000000,,0x00,0xFF
0.681399600000000,,0x00,0xFF
0.681402600000000,,0x00,0xFF
0.681405600000000,,0x00,0xFF
0.681408600000000,,0x00,0xFF
0.681411600000000,,0x00,0xFF
0.681414600000000,,0x00,0xFF
0.681417600000000,,0x00,0xFF
0.681420600000000,,0x00,0xFF
0.681423600000000,,0x00,0xFF
0.681426600000000,,0x00,0xFF
0.681429600000000,,0x00,0xFF
0.681432600000000,,0x00,0xFF
0.681435600000000,,0x00,0xFF
0.681438600000000,,0x00,0xFF
0.681441600000000,,0x00,0xFF
0.681444600000000,,0x00,0xFF
0.681447600000000,,0x00,0xFF
0.681450600000000,,0x00,0xFF
0.681453600000000,,0x00,0xFF
0.681456600000000,,0x00,0xFF
0.681459600000000,,0x00,0xFF
0.681462600000000,,0x00,0xFF
0.681465600000000,,0x00,0xFF
0.681468600000000,,0x00,0xFF
0.681471600000000,,0x00,0xFF
0.681474600000000,,0x00,0xFF
0.681477600000000,,0x00,0xFF
0.681480600000000,,0x00,0xFF
0.681483600000000,,0x00,0xFF
0.681486600000000,,0x00,0xFF
0.681489600000000,,0x00,0xFF
0.681492600000000,,0x00,0xFF
0.681495600000000,,0x00,0xFF
0.681498600000000,,0x00,0xFF
0.681501600000000,,0x00,0xFF
0.681504600000000,,0x00,0xFF
0.681507600000000,,0x00,0xFF
0.681510600000000,,0x00,0xFF
0.681513600000000,,0x00,0xFF
0.681516600000000,,0x00,0xFF
0.681519600000000,,0x00,0xFF
0.681522600000000,,0x00,0xFF
0.681525600000000,,0x00,0xFF
0.681528600000000,,0x00,0xFF
0.681531600000000,,0x00,0xFF
0.681534600000000,,0x00,0xFF
0.681537600000000,,0x00,0xFF
0.681540600000000,,0x00,0xFF
0.681543600000000,,0x00,0xFF
0.681546600000000,,0x00,0xFF
0.681549600000000,,0x00,0xFF
0.681552600000000,,0x00,0xFF
0.681555600000000,,0x00,0xFF
0.681558600000000,,0x00,0xFF
0.681561600000000,,0x00,0xFF
0.681564600000000,,0x00,0xFF
0.681567600000000,,0x00,0xFF
0.681570600000000,,0x00,0xFF
0.681573600000000,,0x00,0xFF
0.681576600000000,,0x00,0xFF
0.681579600000000,,0x00,0xFF
0.681582600000000,,0x00,0xFF
0.681585600000000,,0x00,0xFF
0.681588600000000,,0x00,0xFF
0.681591600000000,,0x00,0xFF
0.681594600000000,,0x00,0xFF
0.681597600000000,,0x00,0xFF
0.681600600000000,,0x00,0xFF
0.681603600000000,,0x00,0xFF
0.681606600000000,,0x00,0xFF
0.681609600000000,,0x00,0xFF
0.681612600000000,,0x00,0xFF
0.681615600000000,,0x00,0xFF
0.681618600000000,,0x00,0xFF
0.681621600000000,,0x00,0xFF
0.681624600000000,,0x00,0xFF
0.681627600000000,,0x00,0xFF
0.681630600000000,,0x00,0xFF
0.681633600000000,,0x00,0xFF
0.681636600000000,,0x00,0xFF
0.681639600000000,,0x00,0xFF
0.681642600000000,,0x00,0xFF
0.681645600000000,,0x00,0xFF
0.681648880000000,,0x00,0xFF
0.681651880000000,,0x00,0xFF
0.681654880000000,,0x00,0xFF
0.681657880000000,,0x00,0xFF
0.681660880000000,,0x00,0xFF
0.681663880000000,,0x00,0xFF
0.681666880000000,,0x00,0xFF
0.681669880000000,,0x00,0xFF
0.681672880000000,,0x00,0xFF
0.681675880000000,,0x00,0xFF
0.681678880000000,,0x00,0xFF
0.681681880000000,,0x00,0xFF
0.681684880000000,,0x00,0xFF
0.681687880000000,,0x00,0xFF
0.681690880000000,,0x00,0xFF
0.681693880000000,,0x00,0xFF
0.681696880000000,,0x00,0xFF
0.681699880000000,,0x00,0xFF
0.681702900000000,,0x00,0xFF
0.681705900000000,,0x00,0xFF
0.681708900000000,,0x00,0xFF
0.681711900000000,,0x00,0xFF
0.681714900000000,,0x00,0xFF
0.681717900000000,,0x00,0xFF
0.681720900000000,,0x00,0xFF
0.681723900000000,,0x00,0xFF
0.681726900000000,,0x00,0xFF
0.681729900000000,,0x00,0xFF
0.681732900000000,,0x00,0xFF
0.681735900000000,,0x00,0xFF
0.681738900000000,,0x00,0xFF
0.681741900000000,,0x00,0xFF
0.681744900000000,,0x00,0xFF
0.681747900000000,,0x00,0xFF
0.681750900000000,,0x00,0xFF
0.681753900000000,,0x00,0xFF
0.681756900000000,,0x00,0xFF
0.681759900000000,,0x00,0xFF
0.681762900000000,,0x00,0xFF
0.681765900000000,,0x00,0xFF
0.681768900000000,,0x00,0xFF
0.681771900000000,,0x00,0xFF
0.681774900000000,,0x00,0xFF
0.681777900000000,,0x00,0xFF
0.681780900000000,,0x00,0xFF
0.681783900000000,,0x00,0xFF
0.681786900000000,,0x00,0xFF
0.681789900000000,,0x00,0xFF
0.681792900000000,,0x00,0xFF
0.681795900000000,,0x00,0xFF
0.681798900000000,,0x00,0xFF
0.681801900000000,,0x00,0xFF
0.681804900000000,,0x00,0xFF
0.681807900000000,,0x00,0xFF
0.681810900000000,,0x00,0xFF
0.681813900000000,,0x00,0xFF
0.681816900000000,,0x00,0xFF
0.681819900000000,,0x00,0xFF
0.681822900000000,,0x00,0xFF
0.681825900000000,,0x00,0xFF
0.681828900000000,,0x00,0xFF
0.681831900000000,,0x00,0xFF
0.681834900000000,,0x00,0xFF
0.681837900000000,,0x00,0xFF
0.681840900000000,,0x00,0xFF
0.681843900000000,,0x00,0xFF
0.681846900000000,,0x00,0xFF
0.681849900000000,,0x00,0xFF
0.681852900000000,,0x00,0xFF
0.681855900000000,,0x00,0xFF
0.681858900000000,,0x00,0xFF
0.681861900000000,,0x00,0xFF
0.681864900000000,,0x00,0xFF
0.681867900000000,,0x00,0xFF
0.681870900000000,,0x00,0xFF
0.681873900000000,,0x00,0xFF
0.681876900000000,,0x00,0xFF
0.681879900000000,,0x00,0xFF
0.681882900000000,,0x00,0xFF
0.681885900000000,,0x00,0xFF
0.681888900000000,,0x00,0xFF
0.681891900000000,,0x00,0xFF
0.681894900000000,,0x00,0xFF
0.681897900000000,,0x00,0xFF
0.681900900000000,,0x00,0xFF
0.681903900000000,,0x00,0xFF
0.681906900000000,,0x00,0xFF
0.681909900000000,,0x00,0xFF
0.681912900000000,,0x00,0xFF
0.681915900000000,,0x00,0xFF
0.681918900000000,,0x00,0xFF
0.681921900000000,,0x00,0xFF
0.681924900000000,,0x00,0xFF
0.681927900000000,,0x00,0xFF
0.681930900000000,,0x00,0xFF
0.681933900000000,,0x00,0xFF
0.681936900000000,,0x53,0xFF
0.681939900000000,,0x65,0xFF
0.681942900000000,,0x63,0xFF
0.681945900000000,,0x74,0xFF
0.681948900000000,,0x6F,0xFF
0.681951900000000,,0x72,0xFF
0.681954900000000,,0x30,0xFF
0.681957900000000,,0x78,0xFF
0.681960900000000,,0x30,0xFF
0.681963900000000,,0x30,0xFF
0.681966900000000,,0x30,0xFF
0.681969900000000,,0x30,0xFF
0.681972900000000,,0x30,0xFF
0.681975900000000,,0x30,0xFF
0.681978900000000,,0x30,0xFF
0.681981900000000,,0x33,0xFF
0.681984900000000,,0x00,0xFF
0.681987900000000,,0x00,0xFF
0.681990900000000,,0x00,0xFF
0.681993900000000,,0x00,0xFF
0.681996900000000,,0x00,0xFF
0.681999900000000,,0x00,0xFF
0.682002900000000,,0x00,0xFF
0.682005900000000,,0x00,0xFF
0.682008900000000,,0x00,0xFF
0.682011900000000,,0x00,0xFF
0.682014900000000,,0x00,0xFF
0.682017900000000,,0x00,0xFF
0.682020900000000,,0x00,0xFF
0.682023900000000,,0x45,0xFF
0.682026900000000,,0x6E,0xFF
0.682029900000000,,0x64,0xFF	Последний байт сектора 0х00000003
0.682032620000000,,0xFF,0xFF	пустое CRC16
0.682034900000000,,0xFF,0xFF	пустое CRC16
0,682043480000000,,0xFF,0xE5	раздупление 813 тактов(3.5мгц)
0.682049040000000,,0xFF,0x00
0.682065040000000,,0xFF,0xFF
0.682081060000000,,0xFF,0xFF
0.682086620000000,,0xFF,0xFF
0.682092200000000,,0xFF,0xFF
0.682097760000000,,0xFF,0xFF
0.682103340000000,,0xFF,0xFF
0.682108900000000,,0xFF,0xFF
0.682114480000000,,0xFF,0xFF
0.682120060000000,,0xFF,0xFF
0.682125620000000,,0xFF,0xFF
0.682131200000000,,0xFF,0xFF
0.682136760000000,,0xFF,0xFF
0.682142340000000,,0xFF,0xFF
0.682147920000000,,0xFF,0xFF
0.682153480000000,,0xFF,0xFF
0.682159060000000,,0xFF,0xFF
0.682164620000000,,0xFF,0xFF
0.682170200000000,,0xFF,0xFF
0.682175760000000,,0xFF,0xFF
0.682181340000000,,0xFF,0xFF
0.682186920000000,,0xFF,0xFF
0.682192480000000,,0xFF,0xFF
0.682198060000000,,0xFF,0xFF
0.682203620000000,,0xFF,0xFF
0.682209200000000,,0xFF,0xFF
0.682214780000000,,0xFF,0xFF
0.682220340000000,,0xFF,0xFF
0.682225920000000,,0xFF,0xFF
0.682231480000000,,0xFF,0xFF
0.682237060000000,,0xFF,0xFF
0.682242620000000,,0xFF,0xFF
0.682248200000000,,0xFF,0xFF
0.682253780000000,,0xFF,0xFF
0.682267200000000,,0xFD,0xFF	маркер остановки записи
0,682275780000000,,0xFF,0x80	раздупление 24500 тактов(3.5мгц)
0.682281340000000,,0xFF,0x00
0.682297340000000,,0xFF,0x00
0.682313340000000,,0xFF,0x00
0.682329340000000,,0xFF,0x00
0.682345340000000,,0xFF,0x00
0.682361340000000,,0xFF,0x00
0.682377360000000,,0xFF,0x00
0.682393360000000,,0xFF,0x00
0.682409360000000,,0xFF,0x00
0.682425360000000,,0xFF,0x00
0.682441360000000,,0xFF,0x00
0.682457360000000,,0xFF,0x00
0.682473360000000,,0xFF,0x00
0.682489360000000,,0xFF,0x00
0.682505360000000,,0xFF,0x00
0.682521360000000,,0xFF,0x00
0.682537360000000,,0xFF,0x00
0.682553360000000,,0xFF,0x00
0.682569360000000,,0xFF,0x00
0.682585360000000,,0xFF,0x00
0.682601360000000,,0xFF,0x00
0.682617360000000,,0xFF,0x00
0.682633360000000,,0xFF,0x00
0.682649360000000,,0xFF,0x00
0.682665360000000,,0xFF,0x00
0.682681360000000,,0xFF,0x00
0.682697360000000,,0xFF,0x00
0.682713360000000,,0xFF,0x00
0.682729360000000,,0xFF,0x00
0.682745360000000,,0xFF,0x00
0.682761360000000,,0xFF,0x00
0.682777360000000,,0xFF,0x00
0.682793360000000,,0xFF,0x00
0.682809380000000,,0xFF,0x00
0.682825380000000,,0xFF,0x00
0.682841380000000,,0xFF,0x00
0.682857380000000,,0xFF,0x00
0.682873380000000,,0xFF,0x00
0.682889380000000,,0xFF,0x00
0.682905380000000,,0xFF,0x00
0.682921380000000,,0xFF,0x00
0.682937380000000,,0xFF,0x00
0.682953380000000,,0xFF,0x00
0.682969380000000,,0xFF,0x00
0.682985380000000,,0xFF,0x00
0.683001380000000,,0xFF,0x00
0.683017380000000,,0xFF,0x00
0.683033380000000,,0xFF,0x00
0.683049380000000,,0xFF,0x00
0.683065380000000,,0xFF,0x00
0.683081380000000,,0xFF,0x00
0.683097380000000,,0xFF,0x00
0.683113380000000,,0xFF,0x00
0.683129380000000,,0xFF,0x00
0.683145380000000,,0xFF,0x00
0.683161380000000,,0xFF,0x00
0.683177380000000,,0xFF,0x00
0.683193380000000,,0xFF,0x00
0.683209380000000,,0xFF,0x00
0.683225400000000,,0xFF,0x00
0.683241400000000,,0xFF,0x00
0.683257400000000,,0xFF,0x00
0.683273400000000,,0xFF,0x00
0.683289400000000,,0xFF,0x00
0.683305400000000,,0xFF,0x00
0.683321400000000,,0xFF,0x00
0.683337400000000,,0xFF,0x00
0.683353400000000,,0xFF,0x00
0.683369400000000,,0xFF,0x00
0.683385400000000,,0xFF,0x00
0.683401400000000,,0xFF,0x00
0.683417400000000,,0xFF,0x00
0.683433400000000,,0xFF,0x00
0.683449400000000,,0xFF,0x00
0.683465400000000,,0xFF,0x00
0.683481400000000,,0xFF,0x00
0.683497400000000,,0xFF,0x00
0.683513400000000,,0xFF,0x00
0.683529400000000,,0xFF,0x00
0.683545400000000,,0xFF,0x00
0.683561400000000,,0xFF,0x00
0.683577400000000,,0xFF,0x00
0.683593400000000,,0xFF,0x00
0.683609400000000,,0xFF,0x00
0.683625400000000,,0xFF,0x00
0.683641400000000,,0xFF,0x00
0.683657420000000,,0xFF,0x00
0.683673420000000,,0xFF,0x00
0.683689420000000,,0xFF,0x00
0.683705420000000,,0xFF,0x00
0.683721420000000,,0xFF,0x00
0.683737420000000,,0xFF,0x00
0.683753420000000,,0xFF,0x00
0.683769420000000,,0xFF,0x00
0.683785420000000,,0xFF,0x00
0.683801420000000,,0xFF,0x00
0.683817420000000,,0xFF,0x00
0.683833420000000,,0xFF,0x00
0.683849420000000,,0xFF,0x00
0.683865420000000,,0xFF,0x00
0.683881420000000,,0xFF,0x00
0.683897420000000,,0xFF,0x00
0.683913420000000,,0xFF,0x00
0.683929420000000,,0xFF,0x00
0.683945420000000,,0xFF,0x00
0.683961420000000,,0xFF,0x00
0.683977420000000,,0xFF,0x00
0.683993420000000,,0xFF,0x00
0.684009420000000,,0xFF,0x00
0.684025420000000,,0xFF,0x00
0.684041420000000,,0xFF,0x00
0.684057420000000,,0xFF,0x00
0.684073420000000,,0xFF,0x00
0.684089440000000,,0xFF,0x00
0.684105440000000,,0xFF,0x00
0.684121440000000,,0xFF,0x00
0.684137440000000,,0xFF,0x00
0.684153440000000,,0xFF,0x00
0.684169440000000,,0xFF,0x00
0.684185440000000,,0xFF,0x00
0.684201440000000,,0xFF,0x00
0.684217440000000,,0xFF,0x00
0.684233440000000,,0xFF,0x00
0.684249440000000,,0xFF,0x00
0.684265440000000,,0xFF,0x00
0.684281440000000,,0xFF,0x00
0.684297440000000,,0xFF,0x00
0.684313440000000,,0xFF,0x00
0.684329440000000,,0xFF,0x00
0.684345440000000,,0xFF,0x00
0.684361440000000,,0xFF,0x00
0.684377440000000,,0xFF,0x00
0.684393440000000,,0xFF,0x00
0.684409440000000,,0xFF,0x00
0.684425440000000,,0xFF,0x00
0.684441440000000,,0xFF,0x00
0.684457440000000,,0xFF,0x00
0.684473440000000,,0xFF,0x00
0.684489440000000,,0xFF,0x00
0.684505460000000,,0xFF,0x00
0.684521460000000,,0xFF,0x00
0.684537460000000,,0xFF,0x00
0.684553460000000,,0xFF,0x00
0.684569460000000,,0xFF,0x00
0.684585460000000,,0xFF,0x00
0.684601460000000,,0xFF,0x00
0.684617460000000,,0xFF,0x00
0.684633460000000,,0xFF,0x00
0.684649460000000,,0xFF,0x00
0.684665460000000,,0xFF,0x00
0.684681460000000,,0xFF,0x00
0.684697460000000,,0xFF,0x00
0.684713460000000,,0xFF,0x00
0.684729460000000,,0xFF,0x00
0.684745460000000,,0xFF,0x00
0.684761460000000,,0xFF,0x00
0.684777460000000,,0xFF,0x00
0.684793460000000,,0xFF,0x00
0.684809460000000,,0xFF,0x00
0.684825460000000,,0xFF,0x00
0.684841460000000,,0xFF,0x00
0.684857460000000,,0xFF,0x00
0.684873460000000,,0xFF,0x00
0.684889460000000,,0xFF,0x00
0.684905460000000,,0xFF,0x00
0.684921460000000,,0xFF,0x00
0.684937480000000,,0xFF,0x00
0.684953480000000,,0xFF,0x00
0.684969480000000,,0xFF,0x00
0.684985480000000,,0xFF,0x00
0.685001480000000,,0xFF,0x00
0.685017480000000,,0xFF,0x00
0.685033480000000,,0xFF,0x00
0.685049480000000,,0xFF,0x00
0.685065480000000,,0xFF,0x00
0.685081480000000,,0xFF,0x00
0.685097480000000,,0xFF,0x00
0.685113480000000,,0xFF,0x00
0.685129480000000,,0xFF,0x00
0.685145480000000,,0xFF,0x00
0.685161480000000,,0xFF,0x00
0.685177480000000,,0xFF,0x00
0.685193480000000,,0xFF,0x00
0.685209480000000,,0xFF,0x00
0.685225480000000,,0xFF,0x00
0.685241480000000,,0xFF,0x00
0.685257480000000,,0xFF,0x00
0.685273480000000,,0xFF,0x00
0.685289480000000,,0xFF,0x00
0.685305480000000,,0xFF,0x00
0.685321480000000,,0xFF,0x00
0.685337480000000,,0xFF,0x00
0.685353480000000,,0xFF,0x00
0.685369500000000,,0xFF,0x00
0.685385500000000,,0xFF,0x00
0.685401500000000,,0xFF,0x00
0.685417500000000,,0xFF,0x00
0.685433500000000,,0xFF,0x00
0.685449500000000,,0xFF,0x00
0.685465500000000,,0xFF,0x00
0.685481500000000,,0xFF,0x00
0.685497500000000,,0xFF,0x00
0.685513500000000,,0xFF,0x00
0.685529500000000,,0xFF,0x00
0.685545500000000,,0xFF,0x00
0.685561500000000,,0xFF,0x00
0.685577500000000,,0xFF,0x00
0.685593500000000,,0xFF,0x00
0.685609500000000,,0xFF,0x00
0.685625500000000,,0xFF,0x00
0.685641500000000,,0xFF,0x00
0.685657500000000,,0xFF,0x00
0.685673500000000,,0xFF,0x00
0.685689500000000,,0xFF,0x00
0.685705500000000,,0xFF,0x00
0.685721500000000,,0xFF,0x00
0.685737500000000,,0xFF,0x00
0.685753500000000,,0xFF,0x00
0.685769500000000,,0xFF,0x00
0.685785520000000,,0xFF,0x00
0.685801520000000,,0xFF,0x00
0.685817520000000,,0xFF,0x00
0.685833520000000,,0xFF,0x00
0.685849520000000,,0xFF,0x00
0.685865520000000,,0xFF,0x00
0.685881520000000,,0xFF,0x00
0.685897520000000,,0xFF,0x00
0.685913520000000,,0xFF,0x00
0.685929520000000,,0xFF,0x00
0.685945520000000,,0xFF,0x00
0.685961520000000,,0xFF,0x00
0.685977520000000,,0xFF,0x00
0.685993520000000,,0xFF,0x00
0.686009520000000,,0xFF,0x00
0.686025520000000,,0xFF,0x00
0.686041520000000,,0xFF,0x00
0.686057520000000,,0xFF,0x00
0.686073520000000,,0xFF,0x00
0.686089520000000,,0xFF,0x00
0.686105520000000,,0xFF,0x00
0.686121520000000,,0xFF,0x00
0.686137520000000,,0xFF,0x00
0.686153520000000,,0xFF,0x00
0.686169520000000,,0xFF,0x00
0.686185520000000,,0xFF,0x00
0.686201520000000,,0xFF,0x00
0.686217540000000,,0xFF,0x00
0.686233540000000,,0xFF,0x00
0.686249540000000,,0xFF,0x00
0.686265540000000,,0xFF,0x00
0.686281540000000,,0xFF,0x00
0.686297540000000,,0xFF,0x00
0.686313540000000,,0xFF,0x00
0.686329540000000,,0xFF,0x00
0.686345540000000,,0xFF,0x00
0.686361540000000,,0xFF,0x00
0.686377540000000,,0xFF,0x00
0.686393540000000,,0xFF,0x00
0.686409540000000,,0xFF,0x00
0.686425540000000,,0xFF,0x00
0.686441540000000,,0xFF,0x00
0.686457540000000,,0xFF,0x00
0.686473540000000,,0xFF,0x00
0.686489540000000,,0xFF,0x00
0.686505540000000,,0xFF,0x00
0.686521540000000,,0xFF,0x00
0.686537540000000,,0xFF,0x00
0.686553540000000,,0xFF,0x00
0.686569540000000,,0xFF,0x00
0.686585540000000,,0xFF,0x00
0.686601540000000,,0xFF,0x00
0.686617540000000,,0xFF,0x00
0.686633560000000,,0xFF,0x00
0.686649560000000,,0xFF,0x00
0.686665560000000,,0xFF,0x00
0.686681560000000,,0xFF,0x00
0.686697560000000,,0xFF,0x00
0.686713560000000,,0xFF,0x00
0.686729560000000,,0xFF,0x00
0.686745560000000,,0xFF,0x00
0.686761560000000,,0xFF,0x00
0.686777560000000,,0xFF,0x00
0.686793560000000,,0xFF,0x00
0.686809560000000,,0xFF,0x00
0.686825560000000,,0xFF,0x00
0.686841560000000,,0xFF,0x00
0.686857560000000,,0xFF,0x00
0.686873560000000,,0xFF,0x00
0.686889560000000,,0xFF,0x00
0.686905560000000,,0xFF,0x00
0.686921560000000,,0xFF,0x00
0.686937560000000,,0xFF,0x00
0.686953560000000,,0xFF,0x00
0.686969560000000,,0xFF,0x00
0.686985560000000,,0xFF,0x00
0.687001560000000,,0xFF,0x00
0.687017560000000,,0xFF,0x00
0.687033560000000,,0xFF,0x00
0.687049560000000,,0xFF,0x00
0.687065580000000,,0xFF,0x00
0.687081580000000,,0xFF,0x00
0.687097580000000,,0xFF,0x00
0.687113580000000,,0xFF,0x00
0.687129580000000,,0xFF,0x00
0.687145580000000,,0xFF,0x00
0.687161580000000,,0xFF,0x00
0.687177580000000,,0xFF,0x00
0.687193580000000,,0xFF,0x00
0.687209580000000,,0xFF,0x00
0.687225580000000,,0xFF,0x00
0.687241580000000,,0xFF,0x00
0.687257580000000,,0xFF,0x00
0.687273580000000,,0xFF,0x00
0.687289580000000,,0xFF,0x00
0.687305580000000,,0xFF,0x00
0.687321580000000,,0xFF,0x00
0.687337580000000,,0xFF,0x00
0.687353580000000,,0xFF,0x00
0.687369580000000,,0xFF,0x00
0.687385580000000,,0xFF,0x00
0.687401580000000,,0xFF,0x00
0.687417580000000,,0xFF,0x00
0.687433580000000,,0xFF,0x00
0.687449580000000,,0xFF,0x00
0.687465580000000,,0xFF,0x00
0.687481580000000,,0xFF,0x00
0.687497600000000,,0xFF,0x00
0.687513600000000,,0xFF,0x00
0.687529600000000,,0xFF,0x00
0.687545600000000,,0xFF,0x00
0.687561600000000,,0xFF,0x00
0.687577600000000,,0xFF,0x00
0.687593600000000,,0xFF,0x00
0.687609600000000,,0xFF,0x00
0.687625600000000,,0xFF,0x00
0.687641600000000,,0xFF,0x00
0.687657600000000,,0xFF,0x00
0.687673600000000,,0xFF,0x00
0.687689600000000,,0xFF,0x00
0.687705600000000,,0xFF,0x00
0.687721600000000,,0xFF,0x00
0.687737600000000,,0xFF,0x00
0.687753600000000,,0xFF,0x00
0.687769600000000,,0xFF,0x00
0.687785600000000,,0xFF,0x00
0.687801600000000,,0xFF,0x00
0.687817600000000,,0xFF,0x00
0.687833600000000,,0xFF,0x00
0.687849600000000,,0xFF,0x00
0.687865600000000,,0xFF,0x00
0.687881600000000,,0xFF,0x00
0.687897600000000,,0xFF,0x00
0.687913620000000,,0xFF,0x00
0.687929620000000,,0xFF,0x00
0.687945620000000,,0xFF,0x00
0.687961620000000,,0xFF,0x00
0.687977620000000,,0xFF,0x00
0.687993620000000,,0xFF,0x00
0.688009620000000,,0xFF,0x00
0.688025620000000,,0xFF,0x00
0.688041620000000,,0xFF,0x00
0.688057620000000,,0xFF,0x00
0.688073620000000,,0xFF,0x00
0.688089620000000,,0xFF,0x00
0.688105620000000,,0xFF,0x00
0.688121620000000,,0xFF,0x00
0.688137620000000,,0xFF,0x00
0.688153620000000,,0xFF,0x00
0.688169620000000,,0xFF,0x00
0.688185620000000,,0xFF,0x00
0.688201620000000,,0xFF,0x00
0.688217620000000,,0xFF,0x00
0.688233620000000,,0xFF,0x00
0.688249620000000,,0xFF,0x00
0.688265620000000,,0xFF,0x00
0.688281620000000,,0xFF,0x00
0.688297620000000,,0xFF,0x00
0.688313620000000,,0xFF,0x00
0.688329620000000,,0xFF,0x00
0.688345640000000,,0xFF,0x00
0.688361640000000,,0xFF,0x00
0.688377640000000,,0xFF,0x00
0.688393640000000,,0xFF,0x00
0.688409640000000,,0xFF,0x00
0.688425640000000,,0xFF,0x00
0.688441640000000,,0xFF,0x00
0.688457640000000,,0xFF,0x00
0.688473640000000,,0xFF,0x00
0.688489640000000,,0xFF,0x00
0.688505640000000,,0xFF,0x00
0.688521640000000,,0xFF,0x00
0.688537640000000,,0xFF,0x00
0.688553640000000,,0xFF,0x00
0.688569640000000,,0xFF,0x00
0.688585640000000,,0xFF,0x00
0.688601640000000,,0xFF,0x00
0.688617640000000,,0xFF,0x00
0.688633640000000,,0xFF,0x00
0.688649640000000,,0xFF,0x00
0.688665640000000,,0xFF,0x00
0.688681640000000,,0xFF,0x00
0.688697640000000,,0xFF,0x00
0.688713640000000,,0xFF,0x00
0.688729640000000,,0xFF,0x00
0.688745640000000,,0xFF,0x00
0.688761660000000,,0xFF,0x00
0.688777660000000,,0xFF,0x00
0.688793660000000,,0xFF,0x00
0.688809660000000,,0xFF,0x00
0.688825660000000,,0xFF,0x00
0.688841660000000,,0xFF,0x00
0.688857660000000,,0xFF,0x00
0.688873660000000,,0xFF,0x00
0.688889660000000,,0xFF,0x00
0.688905660000000,,0xFF,0x00
0.688921660000000,,0xFF,0x00
0.688937660000000,,0xFF,0x00
0.688953660000000,,0xFF,0x00
0.688969660000000,,0xFF,0x00
0.688985660000000,,0xFF,0x00
0.689001660000000,,0xFF,0x00
0.689017660000000,,0xFF,0x00
0.689033660000000,,0xFF,0x00
0.689049660000000,,0xFF,0x00
0.689065660000000,,0xFF,0x00
0.689081660000000,,0xFF,0x00
0.689097660000000,,0xFF,0x00
0.689113660000000,,0xFF,0x00
0.689129660000000,,0xFF,0x00
0.689145660000000,,0xFF,0x00
0.689161660000000,,0xFF,0x00
0.689177660000000,,0xFF,0x00
0.689193680000000,,0xFF,0x00
0.689209680000000,,0xFF,0x00
0.689225680000000,,0xFF,0x00
0.689241680000000,,0xFF,0x00
0.689257680000000,,0xFF,0x00
0,689273680000000,,0xFF,0xFF
0.689289680000000,,0xFF,0xFF
0.689295240000000,,0xFF,0xFF
0.689300820000000,,0xFF,0xFF
0.689306380000000,,0xFF,0xFF
0.689311960000000,,0xFF,0xFF
0.689317540000000,,0xFF,0xFF
0.689323100000000,,0xFF,0xFF
0.689328680000000,,0xFF,0xFF
0.689334240000000,,0xFF,0xFF
0.689339820000000,,0xFF,0xFF
0.689345400000000,,0xFF,0xFF
0.689350960000000,,0xFF,0xFF
0.689356540000000,,0xFF,0xFF
0.689362100000000,,0xFF,0xFF
0.689367680000000,,0xFF,0xFF
0.689373260000000,,0xFF,0xFF
0.689378820000000,,0xFF,0xFF
0.689384400000000,,0xFF,0xFF
0.689389960000000,,0xFF,0xFF
0.689395540000000,,0xFF,0xFF
0.689401100000000,,0xFF,0xFF
0.689406680000000,,0xFF,0xFF
0.689412260000000,,0xFF,0xFF
0.689417820000000,,0xFF,0xFF
0.689423400000000,,0xFF,0xFF
0.689428960000000,,0xFF,0xFF
0.689434540000000,,0xFF,0xFF
0.689440120000000,,0xFF,0xFF
0.689445680000000,,0xFF,0xFF
0.689451260000000,,0xFF,0xFF
0.689456820000000,,0xFF,0xFF
0.689462400000000,,0xFF,0xFF
0.689480820000000,,0x00,0xFF

0.521691260000000,,0x49,0xFF	CMD_9 SEND_CSD
0.521693540000000,,0x00,0xFF
0.521695820000000,,0x00,0xFF
0.521698120000000,,0x00,0xFF
0.521700400000000,,0x00,0xFF
0.521702680000000,,0xFF,0xFF
0.521708400000000,,0xFF,0xFF данные
0.521711400000000,,0xFF,0x00
0.521714400000000,,0xFF,0xFF
0.521717400000000,,0xFF,0xFE
0.521720400000000,,0xFF,0x40
0.521723400000000,,0xFF,0x0E
0.521726400000000,,0xFF,0x00
0.521729400000000,,0xFF,0x32
0.521732400000000,,0xFF,0x5F
0.521735400000000,,0xFF,0x59
0.521738400000000,,0xFF,0x00
0.521741400000000,,0xFF,0x00
0.521744400000000,,0xFF,0x3C
0.521747400000000,,0xFF,0x1C
0.521750400000000,,0xFF,0x7F
0.521753400000000,,0xFF,0x80
0.521756400000000,,0xFF,0x0A
0.521760980000000,,0xFF,0x40
0.521764980000000,,0xFF,0x00
0.521768980000000,,0xFF,0x61
0.521772980000000,,0xFF,0xC7
0.521776980000000,,0xFF,0x75
0.521780980000000,,0xFF,0xFF
0.521784980000000,,0xFF,0xFF
0.521805540000000,,0x4A,0xFF	CMD_10 SEND_CID
0.521807840000000,,0x00,0xFF
0.521810120000000,,0x00,0xFF
0.521812400000000,,0x00,0xFF
0.521814700000000,,0x00,0xFF
0.521816980000000,,0xFF,0xFF
0.521822700000000,,0xFF,0xFF данные
0.521825700000000,,0xFF,0x00
0.521828700000000,,0xFF,0xFF
0.521831700000000,,0xFF,0xFE
0.521834700000000,,0xFF,0x30
0.521837700000000,,0xFF,0x50
0.521840700000000,,0xFF,0x52
0.521843700000000,,0xFF,0x53
0.521846700000000,,0xFF,0x44
0.521849700000000,,0xFF,0x43
0.521852700000000,,0xFF,0x20
0.521855700000000,,0xFF,0x20
0.521858700000000,,0xFF,0x10
0.521861700000000,,0xFF,0x00
0.521864700000000,,0xFF,0x00
0.521867700000000,,0xFF,0x11
0.521870700000000,,0xFF,0xAA
0.521875260000000,,0xFF,0x00
0.521879260000000,,0xFF,0x84
0.521883260000000,,0xFF,0x75
0.521887260000000,,0xFF,0x03
0.521891260000000,,0xFF,0x90
0.521895260000000,,0xFF,0xFF
0.521899260000000,,0xFF,0xFF